! Touchstone file exported from HFSS 2024.2.0
!        File:           C:/Users/vaintrug/Documents/Ansoft_Workspace/Comparaison_Calculs_HFSS/1_VarPort.aedt
!        Generated:      03:22:18 PM Jan 21, 2025
!        Design:         1_NoDeembed_FacePortFree
!        Project:        1_VarPort
!        Setup:          Setup1
!        Solution:       Sweep
!
! Variables:
!        $Lenght = 2000um
!        $PortSize = 160um
!        Gap = 30um
!        Th = 2um
!        X_centralStrip = 20um
!        X_masse = 200um
!        Y_Sub = 2mm
!        Z_Box = 400um
!        Z_Sub = 200um
!
# GHz S MA R 50.000000
! Terminal data exported
! Port[1] = 1
! Port[2] = 2
1                              0.0271733630473486 60.808147649074  0.985422270605355 -5.89386555876451 0.985422270605355 -5.89386555876451 0.027171582572579 60.8034546255028 
! Gamma         6.01425497329502 50.095999430621  5.77514195353914 50.0862615398176 
! Port Impedance         50               0                50               0                
2                              0.0482913696408345 66.5811591972991 0.981930883968607 -11.6543360048776 0.981930883968607 -11.6543360048776 0.0482840244365591 66.5785002342332 
! Gamma         7.94763192442241 98.6602719251286 7.63820117294698 98.8277630824256 
! Port Impedance         50               0                50               0                
3                              0.0696758409973586 65.6177842895437 0.978389152943783 -17.4164664116696 0.978389152943784 -17.4164664116696 0.0696625229504703 65.6181567345344 
! Gamma         9.45342839952367 147.195702841151 9.12608690832501 147.525766148904 
! Port Impedance         50               0                50               0                
4                              0.0905506338184282 62.4236783722373 0.974446482548722 -23.1698565452401 0.974446482548722 -23.1698565452401 0.0905314219579036 62.4267168021428 
! Gamma         10.8323367201155 195.797353907303 10.4992379390868 196.276411203455 
! Port Impedance         50               0                50               0                
5                              0.110480414833274 58.2649559103739 0.970086853345031 -28.9055490978381 0.97008685334503 -28.9055490978382 0.110455398419005 58.2702225954581 
! Gamma         12.1847384829889 244.438152771825 11.8480320753063 245.059133169588 
! Port Impedance         50               0                50               0                
6                              0.129172051986592 53.6250287996139 0.965373116250707 -34.6174179040257 0.965373116250707 -34.6174179040257 0.129141261645893 53.6321029366058 
! Gamma         13.5435896289994 293.093720818927 13.2027370611643 293.853252641525 
! Port Impedance         50               0                50               0                
7                              0.146405043928406 48.7264606899015 0.960396197982245 -40.3013656226821 0.960396197982244 -40.3013656226821 0.146368445925557 48.7349211293974 
! Gamma         14.9200871225544 341.748563983446 14.5738467382056 342.645255343985 
! Port Impedance         50               0                50               0                
8                              0.162007634055387 43.6855315044017 0.955258095550668 -45.9549750690539 0.955258095550667 -45.9549750690539 0.161965140961698 43.6949311810796 
! Gamma         16.3173778305291 390.392935868442 15.9644186336162 391.426493992829 
! Port Impedance         50               0                50               0                
9                              0.175846566698816 38.5685143380842 0.950062940493876 -51.5773287208167 0.950062940493877 -51.5773287208168 0.175798050425562 38.5783572601265 
! Gamma         17.7352299332791 439.020578018001 17.3743335347297 440.191345029854 
! Port Impedance         50               0                50               0                
10                             0.187821121195529 33.41546652406   0.944910980694719 -57.1688629568202 0.944910980694719 -57.1688629568202 0.187766423889775 33.4251867637619 
! Gamma         19.17187636457   487.627457658361 18.8020005428308 488.936151726512 
! Port Impedance         50               0                50               0                
11                             0.197858564073252 28.2515277035325 0.939894190613917 -62.731214417249 0.939894190613916 -62.7312144172491 0.19779750529479 28.2604687178277 
! Gamma         20.6248482154896 536.211057780686 20.2451405053148 537.658619932903 
! Port Impedance         50               0                50               0                
12                             0.205910178965391 23.0928362300383 0.935093098050275 -68.2670496516494 0.935093098050276 -68.2670496516495 0.205842558410362 23.1002286322922 
! Gamma         22.0913983820585 584.76995176472  21.7011905916286 586.357449839668 
! Port Impedance         50               0                50               0                
13                             0.21194770323463 17.9499158801515 0.930574621370421 -73.7798812014449 0.930574621370421 -73.7798812014449 0.211873298525865 17.9548519845992 
! Gamma         23.5687373650643 633.303526702602 23.1675326523268 635.032092036354 
! Port Impedance         50               0                50               0                
14                             0.215960214627147 12.8297922699642 0.926390752676305 -79.2738765426105 0.926390752676306 -79.2738765426105 0.215878773692681 12.8311954863766 
! Gamma         25.0541720364079 681.811788453539 24.6416290711643 683.682572552411 
! Port Impedance         50               0                50               0                
15                             0.217951556595133 7.73744370708795 0.922577931985792 -84.7536662248381 0.922577931985791 -84.753666224838 0.217862784004772 7.73403045295513 
! Gamma         26.5451885044842 730.295215060184 26.1211046648632 732.30935922772  
! Port Impedance         50               0                50               0                
16                             0.217938374462717 2.67690317582519 0.919156970095612 -90.2241562241115 0.919156970095612 -90.2241562241115 0.217841910766034 2.66713426259812 
! Gamma         28.0394997329152 778.75464129027  27.6037943341696 780.913255093453 
! Port Impedance         50               0                50               0                
17                             0.215948799653701 -2.34780239561889 0.916133399502127 -95.690347966736 0.916133399502127 -95.690347966736 0.215844192161794 -2.36578528901107 
! Gamma         29.535069600361  827.191165102333 29.0877675961679 829.495311251371 
! Port Impedance         50               0                50               0                
18                             0.212021782719815 -7.33174494966087 0.913498161214096 -101.157168235025 0.913498161214096 -101.157168235025 0.211908445227792 -7.36020398787242 
! Gamma         31.0301205285926 875.606071100661 30.5713370913988 878.056755134854 
! Port Impedance         50               0                50               0                
19                             0.206207045327728 -12.2681017040535 0.911228565860365 -106.629310384184 0.911228565860365 -106.629310384184 0.206084202694443 -12.3098182970468 
! Gamma         32.5231297605901 924.000767739237 32.053055849548  926.598931330874 
! Port Impedance         50               0                50               0                
20                             0.19856560033239 -17.146934222489 0.909289495655514 -112.111087981233 0.909289495655514 -112.111087981233 0.198432211314321 -17.2053696070148 
! Gamma         34.0128178041403 972.376736204702 33.53170693511   975.123253309577 
! Port Impedance         50               0                50               0                
21                             0.189170779759976 -21.9535337355181 0.907634836365962 -117.606302130748 0.907634836365962 -117.606302130748 0.189025427149967 -22.0330578758533 
! Gamma         35.4981318082854 1020.73548934786 35.0062880383997 1023.63116450029 
! Port Impedance         50               0                50               0                
22                             0.178109720624527 -26.6659891464543 0.906209142754876 -123.118124199842 0.906209142754876 -123.118124199842 0.177950450235716 -26.7722155856977 
! Gamma         36.9782258864785 1069.07853921821 36.4759930410453 1072.12410757315 
! Port Impedance         50               0                50               0                
23                             0.165485304513096 -31.2513556440596 0.9049495456035  -128.6489962905  0.9049495456035  -128.6489962905  0.165309380721187 -31.3916459384871 
! Gamma         38.4524399680158 1117.40737202553 37.9401921139356 1120.60350059954 
! Port Impedance         50               0                50               0                
24                             0.151418668423181 -35.6592201972763 0.903787902662645 -134.200552438441 0.903787902662644 -134.200552438441 0.151222187420939 -35.8434690860144 
! Gamma         39.9202783123338 1165.72342933605 39.3984114104285 1169.0707192464  
! Port Impedance         50               0                50               0                
25                             0.136052700245435 -39.810176110207 0.902653180010894 -139.773563985462 0.902653180010894 -139.773563985462 0.135829947979999 -40.0520787556693 
! Gamma         41.3813885117871 1214.02809457282 40.8503131869675 1217.52708392638 
! Port Impedance         50               0                50               0                
26                             0.119557664101189 -43.5736741700281 0.90147402595082 -145.367912736265 0.901474025950819 -145.367912736265 0.119299987975548 -43.892850873505 
! Gamma         42.8355415515211 1262.32268376324 42.2956769176224 1265.97385102988 
! Port Impedance         50               0                50               0                
27                             0.102142046968761 -46.721839609395 0.900181469410918 -150.982595170656 0.900181469410918 -150.982595170656 0.101835734184458 -47.1475201315595 
! Gamma         44.282613295655  1310.60843989771 43.7343817201337 1314.41220755262 
! Port Impedance         50               0                50               0                
28                             0.0840774920690514 -48.8232257660974 0.898711643210047 -156.615760130615 0.898711643210047 -156.615760130615 0.0836994483045169 -49.4006622716916 
! Gamma         45.7225675880297 1358.8865300264  45.1663903308289 1362.84326832306 
! Port Impedance         50               0                50               0                
29                             0.0657664935508546 -48.9674937101198 0.897008404578484 -162.26478094954 0.897008404578485 -162.26478094954 0.0652746425222559 -49.7674676921067 
! Gamma         47.1554410797999 1407.15804455113 46.5917347020959 1411.2680753809  
! Port Impedance         50               0                50               0                
30                             0.0479622917472909 -44.9538523345068 0.895025706673766 -167.926361071199 0.895025706673766 -167.926361071199 0.0472732191880344 -46.0669160442371 
! Gamma         48.5813297662234 1455.42399820938 48.0105032184173 1459.68759888281 
! Port Impedance         50               0                50               0                
31                             0.0326215183927908 -30.8812940830012 0.892729570370599 -173.596669943349 0.892729570370599 -173.596669943349 0.0315778112351884 -32.1699146270509 
! Gamma         50.0003771860165 1503.68533229979 49.4228294986238 1508.10273922733 
! Port Impedance         50               0                50               0                
32                             0.0255699016269018 2.54625259379574 0.890099518565707 -179.271503684645 0.890099518565706 -179.271503684645 0.024190143264886 2.78243462690492 
! Gamma         51.4127641833846 1551.94291776454 50.8288826765588 1556.51432999567 
! Port Impedance         50               0                50               0                
33                             0.0327478861279042 35.5500276622515 0.887129365991051 175.053537062347 0.887129365991051 175.053537062347 0.031651033574677 37.3588555263837 
! Gamma         52.81870011775   1600.19755889803 52.2288590547181 1604.92314146801 
! Port Impedance         50               0                50               0                
34                             0.0478433290334542 49.2883602625296 0.883827303382077 169.382861197161 0.883827303382078 169.382861197161 0.0470742694596396 50.9857605149545 
! Gamma         54.2184153715802 1648.44999743831 53.6229749992626 1653.32988451485 
! Port Impedance         50               0                50               0                
35                             0.0651181898148448 53.2075373436261 0.88021527008241 163.720703006915 0.88021527008241 163.720703006915 0.0645336098372873 54.6214042488233 
! Gamma         55.6121550456465 1696.70091681326 55.011460950467  1701.73521463887 
! Port Impedance         50               0                50               0                
36                             0.082673839830155 53.0733353265994 0.876327666180089 158.070949522715 0.876327666180088 158.070949522715 0.0821942488895355 54.2758453089361 
! Gamma         57.0001736853646 1744.95094645541 56.3945564220978 1750.13973606165 
! Port Impedance         50               0                50               0                
37                             0.0997875060615028 51.0368679457391 0.872209506061152 152.436988093114 0.872209506061152 152.436988093114 0.0993713695606065 52.0901579744138 
! Gamma         58.3827309207869 1793.20066611573 57.7725058631618 1798.54400583041 
! Port Impedance         50               0                50               0                
38                             0.116083219542234 47.9916457159279 0.867914153028813 146.821581148675 0.867914153028814 146.821581148675 0.11570674860491 48.9361642238052 
! Gamma         59.7600878981173 1841.45060998293 59.1455552692832 1846.94853771621 
! Port Impedance         50               0                50               0                
39                             0.131317427974422 44.3631322592498 0.863500795170474 141.226772897767 0.863500795170474 141.226772897767 0.130965638983366 45.2248762312095 
! Gamma         61.1325043980705 1889.70127069109 60.5139494518951 1895.35380601833 
! Port Impedance         50               0                50               0                
40                             0.145312453021553 40.3773790884713 0.859031824904869 135.653830299228 0.859031824904869 135.653830299228 0.144975072865907 41.1734040412407 
! Gamma         62.5002365333178 1937.95310307869 61.8779298491765 1943.7602491366  
! Port Impedance         50               0                50               0                
41                             0.157931652458633 36.1650404588048 0.854570270627725 130.103218363295 0.854570270627725 130.103218363295 0.157601078749138 36.9067406175389 
! Gamma         63.8635349512226 1986.20652772202 63.2377328197768 1992.16827292858 
! Port Impedance         50               0                50               0                
42                             0.169068400057705 31.8067312490985 0.850177402863097 124.574607886887 0.850177402863097 124.574607886887 0.168738598310786 32.5017561394733 
! Gamma         65.2226434487822 2034.46193426614 64.5935883269286 2040.57825383657 
! Port Impedance         50               0                50               0                
43                             0.178640239704968 27.3548552413059 0.845910604696548 119.066912282144 0.845910604696549 119.066912282144 0.178306100612034 28.0082506806054 
! Gamma         66.5777979466662 2082.71968443435 65.9457189621347 2088.99054178778 
! Port Impedance         50               0                50               0                
44                             0.186585188831748 22.8450155870925 0.841821562334639 113.578349240889 0.84182156233464 113.578349240889 0.186242125659726 23.4599168122747 
! Gamma         67.9292257512205 2130.98011487715 67.2943392456879 2137.40546285533 
! Port Impedance         50               0                50               0                
45                             0.192859056320118 18.3024308183743 0.837954800844919 108.106522595005 0.837954800844919 108.106522595005 0.192502733045155 18.880486528758  
! Gamma         69.2771450660313 2179.24353972725 68.6396551506485 2185.82332170131 
! Port Impedance         50               0                50               0                
46                             0.197433345655233 13.7458024204033 0.834346565411241 102.648519754107 0.834346565411241 102.648519754107 0.197059477233418 14.2874284216141 
! Gamma         70.6217646945299 2227.51025296141 69.9818638282708 2234.24440381153 
! Port Impedance         50               0                50               0                
47                             0.200293593711046 9.18982329637783 0.83102403134632 97.2010204304326 0.831024031346321 97.2010204304326 0.19989778442594 9.69434069260042 
! Gamma         71.9632839110272 2275.78053054215 71.3211534748097 2282.66897751833 
! Port Impedance         50               0                50               0                
48                             0.201438107162581 4.6469481880261  0.828004816653727 91.760412852568  0.828004816653727 91.760412852568  0.201015705028111 5.11263615539265 
! Gamma         73.3018924604866 2324.05463235069 72.6577033282858 2331.09729584392 
! Port Impedance         50               0                50               0                
49                             0.200877098863638 0.128777781242715 0.825296768347952 86.3229141947565 0.825296768347953 86.3229141947565 0.200423049570451 0.552855619262747 
! Gamma         74.6377706594873 2372.33280395162 73.9916837617391 2379.52959816351 
! Port Impedance         50               0                50               0                
50                             0.198632236851074 -4.35272022474075 0.822897996381829 80.8846924260115 0.822897996381829 80.8846924260115 0.198140922319875 -3.97417760268513 
! Gamma         75.9710895834659 2420.61527816607 75.3232564543271 2427.96611170438 
! Port Impedance         50               0                50               0                
51                             0.194736617321671 -8.78398400499408 0.820797135146675 75.4419871260235 0.820797135146675 75.4419871260235 0.19420166250969 -8.45620154320714 
! Gamma         77.3020113122501 2468.90227650968 76.6525746238268 2476.40705290652 
! Port Impedance         50               0                50               0                
52                             0.189235170803209 -13.1484620286383 0.818973820070959 69.9912269955393 0.818973820070959 69.9912269955393 0.18864919792725 -12.8782037762158 
! Gamma         78.6306892246122 2517.19401046477 77.9797832946006 2524.85262862446 
! Port Impedance         50               0                50               0                
53                             0.182185515579598 -17.4248510618444 0.817399374050083 64.5291417974452 0.817399374050084 64.5291417974452 0.1815398164215  -17.2207657060413 
! Gamma         79.9572683256161 2565.49068263472 79.3050196123503 2573.30303722715 
! Port Impedance         50               0                50               0                
54                             0.173659294459651 -21.5846807368479 0.816037703572944 59.0528663249424 0.816037703572944 59.0528663249424 0.172943376782012 -21.4577879635233 
! Gamma         81.281885601119  2613.79248777556 80.6284131713928 2621.75846957266 
! Port Impedance         50               0                50               0                
55                             0.163744087385637 -25.5887815201182 0.814846406078796 53.560033745504  0.814846406078796 53.560033745504  0.162945026635124 -25.5531487696194 
! Gamma         82.6046703791809 2662.0996137046  81.9500863535832 2670.21910987743 
