! Touchstone file exported from HFSS 2024.2.0
!        File:           C:/Users/vaintrug/Documents/Ansoft_Workspace/Comparaison_Calculs_HFSS/1_VarPort.aedt
!        Generated:      03:22:18 PM Jan 21, 2025
!        Design:         1_NoDeembed_FacePortFree
!        Project:        1_VarPort
!        Setup:          Setup1
!        Solution:       Sweep
!
! Variables:
!        $Lenght = 2000um
!        $PortSize = 130um
!        Gap = 30um
!        Th = 2um
!        X_centralStrip = 20um
!        X_masse = 200um
!        Y_Sub = 2mm
!        Z_Box = 400um
!        Z_Sub = 200um
!
# GHz S MA R 50.000000
! Terminal data exported
! Port[1] = 1
! Port[2] = 2
1                              0.0274259193034212 60.9469371877532 0.985382186159899 -5.90405694541057 0.9853821861599  -5.90405694541056 0.027428695648805 60.9333484572458 
! Gamma         5.78778736013023 49.9861643487315 5.74521444504365 49.8747423962881 
! Port Impedance         50               0                50               0                
2                              0.0487328571616389 66.5967376617236 0.981840910962529 -11.6701000339268 0.981840910962529 -11.6701000339268 0.0487335288103823 66.5669578058975 
! Gamma         7.53582343048905 98.6483455976453 7.47846233818446 98.4527095187482 
! Port Impedance         50               0                50               0                
3                              0.0702885906231381 65.6060758203802 0.978267520530622 -17.4376946670373 0.978267520530621 -17.4376946670373 0.0702843283234276 65.5648261455042 
! Gamma         8.93926317125641 147.35813725357  8.87406337454711 147.076192045651 
! Port Impedance         50               0                50               0                
4                              0.0913276761126993 62.4030969526416 0.974293021034617 -23.196521948665 0.974293021034617 -23.196521948665 0.0913176606765738 62.3513034815435 
! Gamma         10.2641974102943 196.132670376888 10.1925427534168 195.763169308597 
! Port Impedance         50               0                50               0                
5                              0.111410842631654 58.2409421496808 0.969898429864488 -28.9374130509933 0.969898429864487 -28.9374130509933 0.111394529652903 58.1788690266707 
! Gamma         11.5808166702227 244.936615410399 11.5029694499044 244.478992154114 
! Port Impedance         50               0                50               0                
6                              0.130241489424181 53.5998794003265 0.965147128002481 -34.6541136363799 0.965147128002481 -34.6541136363799 0.130218401860547 53.5277866887057 
! Gamma         12.9099782634346 293.748505066891 12.8258343550339 293.202570586399 
! Port Impedance         50               0                50               0                
7                              0.147596602351867 48.7014006225311 0.960131512962191 -40.3424587677639 0.96013151296219 -40.3424587677639 0.147566347355758 48.6196656414919 
! Gamma         14.258110971518  342.5559394091   14.1674573151508 341.921721069084 
! Port Impedance         50               0                50               0                
8                              0.16330265248671 43.6612972428173 0.954955309212248 -46.0000065320543 0.954955309212249 -46.0000065320544 0.163264966498944 43.5704418952701 
! Gamma         15.6264371792054 391.351343132627 15.5290408457036 390.628989175583 
! Port Impedance         50               0                50               0                
9                              0.17722517564734 38.5455456058436 0.94972435923889 -51.6258482134827 0.94972435923889 -51.6258482134827 0.177179969259668 38.4462502841447 
! Gamma         17.0139846591126 440.129891084315 16.9096233877363 439.319619090605 
! Port Impedance         50               0                50               0                
10                             0.189262664665736 33.3939693654312 0.944540461784453 -57.2204563013362 0.944540461784453 -57.2204563013362 0.189210064472493 33.2870898998125 
! Gamma         18.4187762636964 488.888490278136 18.3072500836225 487.990558958656 
! Port Impedance         50               0                50               0                
11                             0.199341898990364 28.2314884259316 0.939496898664262 -62.7855255672884 0.939496898664263 -62.7855255672884 0.199282287843942 28.1180801332532 
! Gamma         19.8383834104289 537.62523793797  19.7195193376987 536.639930275108 
! Port Impedance         50               0                50               0                
12                             0.207413866201336 23.074014230927  0.93467521512661 -68.3237978516782 0.934675215126609 -68.3237978516782 0.207347923851421 22.9553649889414 
! Gamma         21.2702193401672 586.339101492595 21.1438730348823 585.266713544468 
! Port Impedance         50               0                50               0                
13                             0.213450106684106 17.931826248226  0.93014303578626 -73.8388735451542 0.930143035786261 -73.8388735451542 0.213378852802454 17.8095006528032 
! Gamma         22.7117094132649 635.029708568658 22.5777651418137 633.87054125605  
! Port Impedance         50               0                50               0                
14                             0.217439526981276 12.8116821773956 0.925952743487135 -79.3350162400294 0.925952743487137 -79.3350162400294 0.21736436869313 12.6875797770999 
! Gamma         24.1603948935886 683.697195495324 24.0187642509527 682.45154854645  
! Port Impedance         50               0                50               0                
15                             0.219385772242315 7.71826351721424 0.922140859841654 -84.8169568985058 0.922140859841653 -84.8169568985058 0.219308558642702 7.59469556687227 
! Gamma         25.6139962423187 732.342090353492 25.4646161643243 731.010257593672 
! Port Impedance         50               0                50               0                
16                             0.219305230347474 2.65527156768578 0.918727980417349 -90.2897025449416 0.918727980417349 -90.2897025449416 0.219228317170513 2.53506271423888 
! Gamma         27.0704495669758 780.965218475365 26.913279852922  779.54748440695  
! Port Impedance         50               0                50               0                
17                             0.2172257039823  -2.37364124225374 0.915719140897173 -95.7583529043073 0.915719140897171 -95.7583529043072 0.217152032831621 -2.4870168121593 
! Gamma         28.5279243994045 829.567624494361 28.3629449970608 828.064261785198 
! Port Impedance         50               0                50               0                
18                             0.213185749533235 -7.3639750129751 0.913104520547633 -101.227927130422 0.913104520547632 -101.227927130422 0.213118948110818 -7.46620885084177 
! Gamma         29.9848280576285 878.150507580732 29.8120362947809 876.561775326062 
! Port Impedance         50               0                50               0                
19                             0.2072346500543  -12.3094037005036 0.910860421301614 -106.703201992309 0.910860421301615 -106.703201992309 0.207179163256915 -12.3950982590208 
! Gamma         31.4398005949117 926.715167738741 31.2592084301802 925.041310503635 
! Port Impedance         50               0                50               0                
20                             0.199432967183971 -17.2005742088121 0.908950490126864 -112.188562588043 0.908950490126864 -112.188562588043 0.199394234666883 -17.2628845503684 
! Gamma         32.891703124343  975.262961939812 32.7033346075963 973.50420922741  
! Port Impedance         50               0                50               0                
21                             0.189853605892716 -22.0234777901101 0.907327175746003 -117.687866853381 0.907327175746003 -117.687866853381 0.189838311646906 -22.0535965649859 
! Gamma         34.3396019408211 1023.79526863112 34.1434908339336 1021.95183483522 
! Port Impedance         50               0                50               0                
22                             0.178583333547249 -26.7570493577714 0.905933425544614 -123.204325612438 0.905933425544613 -123.204325612438 0.178599770720459 -26.7434476138694 
! Gamma         35.7827500866992 1072.31345977381 35.5789377513095 1070.38554443691 
! Port Impedance         50               0                50               0                
23                             0.165724736827352 -31.3693663774496 0.90470463311808 -128.74040061174 0.904704633118079 -128.74040061174 0.165783363836072 -31.2966417247352 
! Gamma         37.2205677563728 1120.81887926713 37.0091012915112 1118.80666760536 
! Port Impedance         50               0                50               0                
24                             0.151398715765157 -35.811219256002 0.903570840656554 -134.297723669028 0.903570840656554 -134.297723669028 0.151513043413422 -35.6582905589616 
! Gamma         38.6526225602451 1169.31282685746 38.4335531749637 1167.21649044138 
! Port Impedance         50               0                50               0                
25                             0.135747902133288 -40.004483896618 0.902459183440012 -139.87704055573 0.902459183440011 -139.87704055573 0.135935982257086 -39.7416576518817 
! Gamma         40.0786102978825 1217.7965466797  39.8519919565231 1215.61624420573 
! Port Impedance         50               0                50               0                
26                             0.118942114207443 -43.8194921346129 0.901296537916673 -145.478183444324 0.901296537916673 -145.478183444324 0.119229186877766 -43.4035115353464 
! Gamma         41.4983368079638 1266.27121956007 41.264225072079  1264.00709773687 
! Port Impedance         50               0                50               0                
27                             0.101188928350148 -47.0270340160929 0.900012302813831 -151.100075388011 0.900012302813831 -151.100075388011 0.10161246039321 -46.3924498537996 
! Gamma         42.9117011634499 1314.73795843527 42.6701522554315 1312.39015284725 
! Port Impedance         50               0                50               0                
28                             0.0827584496846255 -49.1852574209512 0.898541209216298 -156.740769420427 0.898541209216299 -156.740769420427 0.0833785172919596 -48.2294287919   
! Gamma         44.3186803928115 1363.197806202   44.0697504240286 1360.76644221021 
! Port Impedance         50               0                50               0                
29                             0.0640527946048643 -49.3359337549993 0.896826025878476 -162.397523348524 0.896826025878475 -162.397523348524 0.0649753509437122 -47.8977315890853 
! Gamma         45.7193157937916 1411.6517354735  45.4630601643059 1409.13692908364 
! Port Impedance         50               0                50               0                
30                             0.0458438307827786 -45.0567391266814 0.894820006208357 -168.066909270047 0.894820006208357 -168.066909270047 0.047274345407177 -42.9424843970702 
! Gamma         47.1137008361898 1460.10064980413 46.8501737666892 1457.50250847693 
! Port Impedance         50               0                50               0                
31                             0.0302757051977517 -29.388954399491 0.892488918708776 -173.744954505075 0.892488918708775 -173.744954505075 0.0325790429950521 -27.0668898781944 
! Gamma         48.5019705910113 1508.54538596243 48.2312247605324 1505.86400940765 
! Port Impedance         50               0                50               0                
32                             0.0241872980396109 8.29691585393748 0.889812516426834 -179.427308166935 0.889812516426832 -179.427308166935 0.0271668087645015 6.83987046937058 
! Gamma         49.8842925773285 1556.98671694607 49.6063788734227 1554.22219786039 
! Port Impedance         50               0                50               0                
33                             0.0333001517720149 41.0559724897387 0.886785333731906 174.890574544465 0.886785333731906 174.890574544465 0.0355827409526154 36.6647366097392 
! Gamma         51.260858939321  1605.42535553682 50.9758262716362 1602.57778026611 
! Port Impedance         50               0                50               0                
34                             0.0495483802709943 52.9973109153395 0.883416747414715 169.213239861639 0.883416747414715 169.213239861639 0.0511066064529304 48.8721894297729 
! Gamma         52.6318797939031 1653.86195808923 52.3397749850495 1650.93140726438 
! Port Impedance         50               0                50               0                
35                             0.0675061058140972 55.9140015487101 0.879730297615103 163.545045093896 0.879730297615104 163.545045093896 0.0686180125475579 52.3189706439741 
! Gamma         53.9975776499914 1702.29712853005 53.6984453795952 1699.28367760018 
! Port Impedance         50               0                50               0                
36                             0.0855524903507039 55.2335086958992 0.875762324232732 157.889980530799 0.875762324232731 157.889980530799 0.0863692123241577 52.0182271657409 
! Gamma         55.3581827637573 1750.73142231626 55.052065536274  1747.63514210784 
! Port Impedance         50               0                50               0                
37                             0.103060860945502 52.8735418822507 0.871560027683906 152.251512649819 0.871560027683908 152.251512649819 0.10365967007803 49.909920912146  
! Gamma         56.7139292998821 1799.16535038772 56.4008674717461 1795.9863075344  
! Port Impedance         50               0                50               0                
38                             0.119691391955117 49.6234383306796 0.867179101962155 146.632455807385 0.867179101962155 146.632455807385 0.1201142428475  46.8251457775285 
! Gamma         58.0650522197956 1847.59938294944 57.7450840319376 1844.33764029942 
! Port Impedance         50               0                50               0                
39                             0.135216014276287 45.8594822066337 0.862681108567763 141.034877236733 0.862681108567763 141.034877236733 0.135486886764906 43.1680677661104 
! Gamma         59.4117847600761 1896.03395308052 59.084946398518  1892.68957010575 
! Port Impedance         50               0                50               0                
40                             0.149464429965235 41.7823408093564 0.858130761059323 135.460037648052 0.858130761059322 135.460037648052 0.149597377318823 39.1565184101452 
! Gamma         60.7543564502836 1944.46946017726 60.4206821120215 1941.04249327529 
! Port Impedance         50               0                50               0                
41                             0.162303850145468 37.5084962603093 0.853593274080628 129.908367338202 0.853593274080628 129.908367338202 0.162307014327501 34.9176122527295 
! Gamma         62.0929915521408 1992.90627313181 61.7525135349537 1989.39677593845 
! Port Impedance         50               0                50               0                
42                             0.173629837764886 33.110132351945  0.849131902426116 124.379475701923 0.849131902426116 124.379475701923 0.17350758376779 30.5302346142738 
! Gamma         63.427907886929  2041.34473331502 63.0806566672249 2037.75275696218 
! Port Impedance         50               0                50               0                
43                             0.183361277668162 28.6343825720387 0.844805760796212 118.872190561557 0.844805760796213 118.872190561557 0.183115378807089 26.04577705296   
! Gamma         64.7593159613842 2089.78515731845 64.4053202933487 2086.1107506735  
! Port Impedance         50               0                50               0                
44                             0.191437050352407 24.1134346569672 0.840667979066749 113.384622832027 0.840667979066748 113.384622832027 0.191067357278301 21.4990924089527 
! Gamma         66.0874183575221 2138.22783947704 65.7267053576488 2134.47104934172 
! Port Impedance         50               0                50               0                
45                             0.197813519036437 19.5702469559806 0.836764215708003 107.914251678356 0.836764215708003 107.914251678356 0.197318325891209 16.9147036176616 
! Gamma         67.4124093304483 2186.67305417518 67.0450045704103 2182.83392548373 
! Port Impedance         50               0                50               0                
46                             0.202462510768761 15.0220253059399 0.833131526565862 102.45802540806  0.833131526565863 102.45802540806  0.20183872799175 12.3105657917047 
! Gamma         68.7344745813593 2235.12105795118 68.3604021806362 2231.19963393422 
! Port Impedance         50               0                50               0                
47                             0.205369696447081 10.4825087121807 0.8297975689413  97.0124737131863 0.829797568941301 97.0124737131863 0.204612886465339 7.70051058312594 
! Gamma         70.0537911760114 2283.57209139897 69.6730738864796 2279.568413717   
! Port Impedance         50               0                50               0                
48                             0.20653336101385 5.96361464087122 0.826780111837943 91.5738274368982 0.826780111837944 91.5738274368982 0.205637662880653 3.09596658883065 
! Gamma         71.3705275642666 2332.02638090421 70.9831868545171 2327.94048979828 
! Port Impedance         50               0                50               0                
49                             0.20596358371144 1.47675968449566 0.824086821368018 86.1381426001048 0.824086821368018 86.1381426001047 0.204921533114817 -1.49270673682593 
! Gamma         72.6848436984437 2380.48414020338 72.290899837572  2376.3160745889  
! Port Impedance         50               0                50               0                
50                             0.203681852988629 -2.96593909679439 0.821715293937757 80.7014259361339 0.821715293937757 80.7014259361339 0.202484088336538 -6.05505768012262 
! Gamma         73.9968912207472 2428.94557177819 73.5963633508904 2424.69536936588 
! Port Impedance         50               0                50               0                
51                             0.199721137398346 -7.35042060415887 0.819653317031373 75.2597595375101 0.819653317031374 75.2597595375101 0.19835596672567 -10.5793923867828 
! Gamma         75.306813696384  2477.41086815062 74.8997199076224 2473.07856552291 
! Port Impedance         50               0                50               0                
52                             0.194126432088655 -11.6592317903455 0.817879346108896 69.8094223924204 0.817879346108896 69.8094223924204 0.192579215607978 -15.0514830173559 
! Gamma         76.614746892256  2525.88021297822 76.2011042949534 2521.46584567962 
! Port Impedance         50               0                50               0                
53                             0.18695580840432 -15.8696715151844 0.816363194362836 64.3470065762082 0.816363194362835 64.3470065762083 0.185208083003829 -19.452947055402 
! Gamma         77.920819084226  2574.35378210385 77.500643867406  2569.85738470572 
! Port Impedance         50               0                50               0                
54                             0.178282022670903 -19.9512262940997 0.815066938081619 58.8695256750099 0.815066938081619 58.8695256750099 0.176310250485023 -23.7590243321698 
! Gamma         79.2251513785065 2622.83174444067 78.7984588757202 2618.25335061737 
! Port Impedance         50               0                50               0                
55                             0.168194809475267 -23.8618134312543 0.813946042579171 53.3745127213715 0.81394604257917 53.3745127213715 0.165968560743198 -27.9353029642928 
! Gamma         80.52785804774   2671.31426280681 80.0946627945248 2666.65390537879 
