! Touchstone file exported from HFSS 2024.2.0
!        File:           C:/Users/vaintrug/Documents/Ansoft_Workspace/Comparaison_Calculs_HFSS/1_VarPort.aedt
!        Generated:      03:22:17 PM Jan 21, 2025
!        Design:         1_NoDeembed_FacePortFree
!        Project:        1_VarPort
!        Setup:          Setup1
!        Solution:       Sweep
!
! Variables:
!        $Lenght = 1500um
!        $PortSize = 330um
!        Gap = 30um
!        Th = 2um
!        X_centralStrip = 20um
!        X_masse = 200um
!        Y_Sub = 1.5mm
!        Z_Box = 400um
!        Z_Sub = 200um
!
# GHz S MA R 50.000000
! Terminal data exported
! Port[1] = 1
! Port[2] = 2
1                              0.021080629235333 62.9441396497468 0.98908823838916 -4.43118030443053 0.98908823838916 -4.43118030443053 0.021080850336907 62.9263124661891 
! Gamma         6.03036535051216 50.2768331010296 6.08242447069483 50.1400562427504 
! Port Impedance         50               0                50               0                
2                              0.0377493747303068 69.7707171714352 0.98654397874923 -8.76114219222786 0.98654397874923 -8.76114219222786 0.0377429945033824 69.7424740311109 
! Gamma         7.91393852970124 99.0435295532713 7.91896074000475 98.8301743907967 
! Port Impedance         50               0                50               0                
3                              0.054762646588409 70.0625490728467 0.984033418809277 -13.094684097946 0.984033418809277 -13.094684097946 0.0547482741004238 70.0277615933509 
! Gamma         9.39357146699447 147.825538512824 9.37366431618619 147.539657029222 
! Port Impedance         50               0                50               0                
4                              0.0716330531026504 68.1880460568968 0.981260761221447 -17.4260276820027 0.981260761221448 -17.4260276820027 0.0716102367084352 68.1464551879238 
! Gamma         10.7679648848042 196.674598717179 10.7279545666783 196.317581283195 
! Port Impedance         50               0                50               0                
5                              0.0880992033969583 65.3656076790899 0.978183381111281 -21.7495250845398 0.978183381111281 -21.7495250845397 0.0880673661059833 65.3168448340568 
! Gamma         12.1241827399289 245.557977676827 12.0669572069467 245.130851631136 
! Port Impedance         50               0                50               0                
6                              0.103992589384784 62.0598400447394 0.974816657751775 -26.0611930554166 0.974816657751775 -26.0611930554166 0.10395107767656 62.003744954757  
! Gamma         13.4898532718451 294.452567747427 13.4171596153756 293.955719114295 
! Port Impedance         50               0                50               0                
7                              0.119186989559381 58.4843348519337 0.971196109417311 -30.3580889040539 0.971196109417311 -30.3580889040539 0.119135154854007 58.4209140757075 
! Gamma         14.8742280653671 343.344352914197 14.7869814014976 342.777919261933 
! Port Impedance         50               0                50               0                
8                              0.133580907250458 54.7507009439642 0.96736651199864 -34.6380264515695 0.967366511998641 -34.6380264515695 0.133518162448741 54.6800803935322 
! Gamma         16.2797238522632 392.224602080125 16.1782981415298 391.58870085566  
! Port Impedance         50               0                50               0                
9                              0.147090638579143 50.9228516447088 0.963377238786892 -38.8994554930367 0.963377238786891 -38.8994554930367 0.147016497861709 50.8452468501891 
! Gamma         17.7058284437665 441.087719779152 17.5902697720549 440.382537297012 
! Port Impedance         50               0                50               0                
10                             0.159646990562907 47.0398993180587 0.959279506047114 -43.1413992741879 0.959279506047115 -43.1413992741879 0.15956109875502 46.9555981272359 
! Gamma         19.1506700811268 489.930120721684 19.0208378722787 489.155934302095 
! Port Impedance         50               0                50               0                
11                             0.171193327549156 43.1269406633856 0.955124408096789 -47.3634093329372 0.955124408096789 -47.3634093329372 0.171095482170846 43.0362933968689 
! Gamma         20.6117479057169 538.749608172005 20.4674051112205 537.906780404968 
! Port Impedance         50               0                50               0                
12                             0.181684115101181 39.2006040374503 0.950961405416336 -51.5655229399159 0.950961405416336 -51.5655229399159 0.181574282673901 39.1040181808156 
! Gamma         22.0863151463986 587.544999317717 21.9271848623757 586.633962425649 
! Port Impedance         50               0                50               0                
13                             0.191083660052571 35.2721187491536 0.946837146727795 -55.7482184122768 0.946837146727796 -55.7482184122767 0.190961987587717 35.1700565894759 
! Gamma         23.5715981748773 636.315877475726 23.3973986524984 635.337115352975 
! Port Impedance         50               0                50               0                
14                             0.199364946687123 31.3491241893505 0.942794569286529 -59.9123676305893 0.942794569286529 -59.9123676305893 0.199231769027831 31.2421025183758 
! Gamma         25.0649279695225 685.062413632879 24.8753936275152 684.016444804263 
! Port Impedance         50               0                50               0                
15                             0.206508548930465 27.4367986334912 0.938872238562762 -64.0591865167305 0.938872238562763 -64.0591865167305 0.20636439252526 27.3253901254734 
! Gamma         26.5638194683166 733.785229455529 26.3587128079191 732.67259204245  
! Port Impedance         50               0                50               0                
16                             0.212501627006182 23.5386018608582 0.93510389233655 -68.1901846635087 0.93510389233655 -68.1901846635087 0.212347210643015 23.4234378444105 
! Gamma         28.0660172612324 782.485287530042 27.8451348161225 781.306526695291 
! Port Impedance         50               0                50               0                
17                             0.217337024800442 19.6567890459496 0.931518155347573 -72.3071152338857 0.931518155347572 -72.3071152338857 0.217173257816428 19.5385636777866 
! Gamma         29.5695183237303 831.163801551282 29.3326927446922 829.919459216085 
! Port Impedance         50               0                50               0                
18                             0.221012483193109 15.7927846693111 0.928138392351082 -76.4119259943311 0.928138392351082 -76.4119259943311 0.220840461636663 15.6722605281486 
! Gamma         31.0725787161712 879.822162185846 30.8196783388791 878.512768939521 
! Port Impedance         50               0                50               0                
19                             0.223529980041086 11.9474688794155 0.924982670510737 -80.506712073744 0.924982670510736 -80.5067120737439 0.223350981241893 11.8254841551673 
! Gamma         32.5737090565071 928.461876025671 32.3046359312964 927.087944894488 
! Port Impedance         50               0                50               0                
20                             0.224895202545345 8.12140910159241 0.922063806149468 -84.593670778812 0.922063806149468 -84.593670778812 0.224710678514667 7.9988866182812  
! Gamma         34.0716623243625 977.084515909435 33.7863493526171 975.646537725956 
! Port Impedance         50               0                50               0                
21                             0.225117153212722 4.31505879162361 0.919389475571772 -88.6750585934999 0.919389475571772 -88.6750585934999 0.224928723285436 4.19301724371618 
! Gamma         35.5654167272266 1025.69168093513 35.2638243292793 1024.19012105583 
! Port Impedance         50               0                50               0                
22                             0.224207886731963 0.5289393538809  0.916962374572983 -92.7531503630575 0.916962374572983 -92.7531503630575 0.224017329858388 0.408507271027714 
! Gamma         37.0541556230135 1074.28496499581 36.7362682662569 1072.72026115871 
! Port Impedance         50               0                50               0                
23                             0.222182372422875 -3.23618157084643 0.914780415862895 -96.8302005710142 0.914780415862895 -96.8302005710142 0.221991619550134 -3.35374842268864 
! Gamma         38.5372461057688 1122.86593259139 38.2030688732488 1121.23849362241 
! Port Impedance         50               0                50               0                
24                             0.219058474501898 -6.97910292877506 0.912836957936027 -100.908406619317 0.912836957936028 -100.908406619317 0.218869601557703 -7.09239972667796 
! Gamma         40.0142173444805 1171.43610082429 39.6637726845205 1169.74630604001 
! Port Impedance         50               0                50               0                
25                             0.214857041197177 -10.6979803968499 0.91112106249143 -104.989874013831 0.911121062491431 -104.989874013831 0.214672263320103 -10.8054256701846 
! Gamma         41.484739510257  1219.99692651621 41.1180642332278 1218.24512573037 
! Port Impedance         50               0                50               0                
26                             0.20960209260967 -14.3900767324062 0.909617780508791 -109.076583433594 0.909617780508791 -109.076583433594 0.209423760494426 -14.4898771127429 
! Gamma         42.9486038379499 1268.5497976158  42.5657464031692 1266.73631149078 
! Port Impedance         50               0                50               0                
27                             0.203321096934387 -18.051449006733 0.908308469296207 -113.170359735122 0.908308469296208 -113.170359735122 0.203151696518433 -18.1415536248965 
! Gamma         44.4057041715578 1317.09602801964 44.0067222842008 1315.22114876824 
! Port Impedance         50               0                50               0                
28                             0.196045325247897 -21.676538776085 0.907171144254161 -117.272843034057 0.907171144254161 -117.272843034057 0.195887482514551 -21.7545794776539 
! Gamma         45.856020185612  1365.63685513254 45.4409786852358 1363.70084739015 
! Port Impedance         50               0                50               0                
29                             0.187810277133557 -25.2576135003242 0.906180869733491 -121.385462117321 0.906180869733491 -121.385462117321 0.18766677069307 -25.3208252231889 
! Gamma         47.2996023520855 1414.17343956054 46.868571387351  1412.1765414186  
! Port Impedance         50               0                50               0                
30                             0.178656174074983 -28.7839772440562 0.905310193189458 -125.509410543806 0.905310193189457 -125.509410543806 0.178529959571716 -28.8290901843376 
! Gamma         48.7365586452405 1462.70686636843 48.2896121209959 1460.6492904906  
! Port Impedance         50               0                50               0                
31                             0.168628527386859 -32.2408161896532 0.904529625785218 -129.645625882465 0.904529625785218 -129.645625882465 0.168522780071863 -32.2639069503275 
! Gamma         50.1670429306302 1511.23814756124 49.7042571852189 1509.12008233355 
! Port Impedance         50               0                50               0                
32                             0.157778806492733 -35.6074501550789 0.903808170783871 -133.794772619485 0.90380817078387 -133.794772619485 0.157696992102284 -35.6037320562905 
! Gamma         51.5912449076991 1559.76822541543 51.1126976124279 1557.58983610006 
! Port Impedance         50               0                50               0                
33                             0.146165270777833 -38.8545857557487 0.903113898497263 -137.957229318334 0.903113898497262 -137.957229318334 0.146111261518241 -38.8181067123098 
! Gamma         53.0093815015815 1608.29797630572 52.5151507461184 1606.0594061837  
! Port Impedance         50               0                50               0                
34                             0.133854103272653 -41.9398248885123 0.902414563348193 -142.133080635416 0.902414563348194 -142.133080635416 0.133832367672962 -41.8630217041937 
! Gamma         54.4216895626119 1656.82821493605 53.9118531021071 1654.52958640864 
! Port Impedance         50               0                50               0                
35                             0.120921140644907 -44.7999818724847 0.901678254956486 -146.32211476431 0.901678254956486 -146.32211476431 0.120937058664727 -44.6730066767096 
! Gamma         55.8284197156189 1705.35969867922 55.3030543700562 1703.00111433108 
! Port Impedance         50               0                50               0                
36                             0.107454838909788 -47.3372405126362 0.900874071305249 -150.523826816144 0.90087407130525 -150.523826816144 0.107515238372795 -47.1469211904895 
! Gamma         57.2298312563411 1753.89313199014 56.6890124232048 1751.47467557211 
! Port Impedance         50               0                50               0                
37                             0.0935619334023089 -49.392642691076 0.899972798288482 -154.737428514369 0.899972798288482 -154.737428514369 0.0936760366818367 -49.1208637675119 
! Gamma         58.6261879284264 1802.42917071108 58.069989207665  1799.95090809987 
! Port Impedance         50               0                50               0                
38                             0.0793793787073575 -50.6915093527824 0.898947576646356 -158.961864412191 0.898947576646356 -158.961864412191 0.0795605498276027 -50.312772289308 
! Gamma         60.0177544910375 1850.9684262838  59.4462473930387 1848.43040634916 
! Port Impedance         50               0                50               0                
39                             0.0651022985586735 -50.721154678967 0.897774534818129 -163.195834623022 0.897774534818129 -163.195834623022 0.0653714207702758 -50.1996243460658 
! Gamma         61.404793952697  1899.51146972598 60.8180476823772 1896.91372515752 
! Port Impedance         50               0                50               0                
40                             0.0510577005811456 -48.4306853028848 0.896433364921726 -167.437823804461 0.896433364921726 -167.437823804461 0.0514498246291166 -47.721624333661 
! Gamma         62.7875653760128 1948.05883543481 62.1856466820928 1945.40138348873 
! Port Impedance         50               0                50               0                
41                             0.0379263686597216 -41.4512304929754 0.894907819180484 -171.686135868419 0.894907819180484 -171.686135868419 0.0385016341502108 -40.5431017232502 
! Gamma         64.1663221677603 1996.61102473523 63.5492952396524 1993.89386792653 
! Port Impedance         50               0                50               0                
42                             0.0274545396974283 -24.5564985299273 0.893186105812744 -175.938933623734 0.893186105812744 -175.938933623734 0.0282869949044268 -23.7552340659954 
! Gamma         65.5413107802982 2045.16850916233 64.9092371903789 2042.39163590928 
! Port Impedance         50               0                50               0                
43                             0.0237169080059938 6.25619683377714 0.891261166677557 179.805717690241 0.891261166677557 179.805717690241 0.0246987498638177 5.86586304599289 
! Gamma         66.9127697511673 2093.73173353395 66.265708431191  2090.89511873624 
! Port Impedance         50               0                50               0                
44                             0.0293707827953776 34.3306774778531 0.889130823683488 175.549804223514 0.889130823683488 175.549804223514 0.0301679108678913 32.9771571356928 
! Gamma         68.2809290296887 2142.30111874531 67.6189362741871 2139.40472432119 
! Port Impedance         50               0                50               0                
45                             0.0405062666545752 48.2484513441047 0.886797786788452 171.295316079633 0.886797786788452 171.295316079633 0.0410740652327558 46.8929635507898 
! Gamma         69.6460095349752 2190.87706437127 68.9691390313164 2187.92083972525 
! Port Impedance         50               0                50               0                
46                             0.0535946476649427 53.8031415003691 0.884269522899053 167.04420008823  0.884269522899053 167.04420008823  0.0540065729967604 52.6437355977168 
! Gamma         71.0082229099333 2239.45995098679 70.3165257779345 2236.44383347529 
! Port Impedance         50               0                50               0                
47                             0.0672523024718444 55.4284302354082 0.881557991587672 162.798314243735 0.881557991587672 162.798314243735 0.0675617737007419 54.4477641243019 
! Gamma         72.3677714234153 2288.05014234314 71.6612962802832 2284.97405764767 
! Port Impedance         50               0                50               0                
48                             0.0809224626914709 55.0670818779734 0.878679259734302 158.559385182622 0.878679259734301 158.559385182622 0.081161911040632 54.2287618383903 
! Gamma         73.7248480080878 2336.64798730064 73.0036410333761 2333.5118497925  
! Port Impedance         50               0                50               0                
49                             0.094326865262234 53.5984349269555 0.875653012466374 154.328969917486 0.875653012466374 154.328969917486 0.0945171068827222 52.8744587001739 
! Gamma         75.0796363847119 2385.25382159318 74.3437413997255 2382.05753466591 
! Port Impedance         50               0                50               0                
50                             0.107295873601336 51.4618374911261 0.872501981727656 150.108422830615 0.872501981727656 150.108422830615 0.107451525878149 50.8330349505776 
! Gamma         76.4323112735577 2433.86796944499 75.6817698226806 2430.61142578834 
! Port Impedance         50               0                50               0                
51                             0.119710290412198 48.897606761019  0.869251316212337 145.898868678323 0.869251316212337 145.898868678323 0.119842563324078 48.3511865925343 
! Gamma         77.783038659608  2482.49074499705 77.0178900967743 2479.17382686949 
! Port Impedance         50               0                50               0                
52                             0.131478597592046 46.0472859846889 0.865927917177436 141.701182085174 0.865927917177436 141.701182085174 0.131596772215873 45.5748410084144 
! Gamma         79.1319761038125 2531.12245362471 78.3522576804526 2527.74503307481 
! Port Impedance         50               0                50               0                
53                             0.14252694877127 42.9993450084685 0.862559763902207 137.515973732449 0.862559763902207 137.515973732449 0.142639200170987 42.5955201456232 
! Gamma         80.4792730868743 2579.7633931062  79.6850200394987 2576.32533218806 
! Port Impedance         50               0                50               0                
54                             0.152794284452858 39.8117896883566 0.859175250492749 133.343583200688 0.859175250492749 133.343583200688 0.152908162912579 39.4734241076999 
! Gamma         81.8250713710477 2628.41385470176 81.0163170106564 2624.91500564287 
! Port Impedance         50               0                50               0                
55                             0.162229688265397 36.5241537690454 0.855802552692197 129.184078195398 0.855802552692197 129.184078195398 0.162352413889927 36.2497288774337 
