! Touchstone file exported from HFSS 2024.2.0
!        File:           C:/Users/vaintrug/Documents/Ansoft_Workspace/Comparaison_Calculs_HFSS/1_VarPort.aedt
!        Generated:      03:22:18 PM Jan 21, 2025
!        Design:         1_NoDeembed_FacePortFree
!        Project:        1_VarPort
!        Setup:          Setup1
!        Solution:       Sweep
!
! Variables:
!        $Lenght = 2000um
!        $PortSize = 90um
!        Gap = 30um
!        Th = 2um
!        X_centralStrip = 20um
!        X_masse = 200um
!        Y_Sub = 2mm
!        Z_Box = 400um
!        Z_Sub = 200um
!
# GHz S MA R 50.000000
! Terminal data exported
! Port[1] = 1
! Port[2] = 2
1                              0.0275124315911417 61.0594773174273 0.985400817711663 -5.90582613214026 0.985400817711663 -5.90582613214026 0.0275119077342829 61.0470504500907 
! Gamma         5.57005527914217 49.6319145553582 5.68116451099133 49.8911317230719 
! Port Impedance         50               0                50               0                
2                              0.0489641299628473 66.6890523586549 0.981878038615946 -11.6760464485684 0.981878038615945 -11.6760464485684 0.0489586519127644 66.6699268833022 
! Gamma         7.21615653312766 98.156282387927  7.44480068397034 98.5362507319775 
! Port Impedance         50               0                50               0                
3                              0.070668780545596 65.6637894107419 0.97830167620801 -17.4479207713121 0.97830167620801 -17.4479207713121 0.0706582950939282 65.6385167202884 
! Gamma         8.57024684868267 146.725675026489 8.85404907728578 147.193280639742 
! Port Impedance         50               0                50               0                
4                              0.0918528007238198 62.4344846366411 0.974313622530165 -23.210795310778 0.974313622530165 -23.210795310778 0.0918368813361128 62.4024033452746 
! Gamma         9.8636238876185  195.349409729403 10.1773774740175 195.9111631919   
! Port Impedance         50               0                50               0                
5                              0.112077940016356 58.2523682466593 0.969898371200706 -28.9554771584617 0.969898371200706 -28.9554771584617 0.112055862435724 58.2131743445861 
! Gamma         11.1535253952062 243.995817140017 11.48898124586   244.65847676972  
! Port Impedance         50               0                50               0                
6                              0.131048544786768 53.595434223197  0.965120941754203 -34.6756905874021 0.965120941754203 -34.6756905874021 0.131019542013858 53.5490159560376 
! Gamma         12.4564250040173 292.64684798808  12.8111752028958 293.414455268252 
! Port Impedance         50               0                50               0                
7                              0.148542256236445 48.6837993219438 0.960074869065057 -40.3672441571565 0.960074869065057 -40.3672441571565 0.148505612949422 48.6301348040087 
! Gamma         13.7773132389413 341.292253364739 14.1510768247933 342.166892082136 
! Port Impedance         50               0                50               0                
8                              0.164386048481552 43.6324553229282 0.954864859772109 -46.0276682047024 0.954864859772109 -46.0276682047024 0.164341141514932 43.5715708643428 
! Gamma         15.1170379754121 389.925733551506 15.5103379502544 390.908261624817 
! Port Impedance         50               0                50               0                
9                              0.178445887190356 38.5069042647497 0.949597694577048 -51.656027978056 0.949597694577048 -51.656027978056 0.178392207959668 38.4388571585496 
! Gamma         16.4746581296423 438.543210847153 16.8883023673883 439.633718864526 
! Port Impedance         50               0                50               0                
10                             0.190620654647219 33.3466816988384 0.94437610470931 -57.2527736269418 0.94437610470931 -57.2527736269418 0.190557823785204 33.27155291596   
! Gamma         17.8483852670859 487.142018983049 18.2832438048658 488.340105833303 
! Port Impedance         50               0                50               0                
11                             0.200837484965656 28.1765294261761 0.939294310679994 -62.8195827087533 0.939294310679995 -62.8195827087532 0.200765262429601 28.0944208444429 
! Gamma         19.236034612369  535.720479241451 19.6929373175425 537.025422673221 
! Port Impedance         50               0                50               0                
12                             0.209047675832977 23.0122477611076 0.934434804516829 -68.3591860480107 0.934434804516829 -68.3591860480107 0.208965967790445 22.9232817915234 
! Gamma         20.6352723657435 584.277649718112 21.114960401108  585.688517107983 
! Port Impedance         50               0                50               0                
13                             0.215223014140487 17.8640465874384 0.929866163648046 -73.8751801002488 0.929866163648046 -73.8751801002488 0.215131877378321 17.7683674426533 
! Gamma         22.0437639105188 632.81315818473  22.546867702155  634.328882190053 
! Port Impedance         50               0                50               0                
14                             0.219352564851345 12.738639771875  0.925641725811172 -79.3718323702193 0.925641725811172 -79.3718323702193 0.219252209257408 12.6364161066853 
! Gamma         23.4592669124512 681.32707913098  23.9862982269965 682.946511643137 
! Port Impedance         50               0                50               0                
15                             0.221440016094072 7.64068020941518 0.921798963941209 -84.8538862859627 0.921798963941209 -84.8538862859627 0.221330805674873 7.53210918368251 
! Gamma         24.8796898187627 729.819836713073 25.4310420066262 731.541788396762 
! Port Impedance         50               0                50               0                
16                             0.221501655283203 2.57384792855733 0.918359413317858 -90.3263705210785 0.918359413317858 -90.3263705210785 0.22138410814429 2.45916102226953 
! Gamma         26.3031270246918 778.292124726967 26.8790800988107 780.115394703741 
! Port Impedance         50               0                50               0                
17                             0.219565014244751 -2.45822569461204 0.915329026361031 -95.7944161919199 0.915329026361031 -95.7944161919199 0.219439801917026 -2.57875462224497 
! Gamma         27.727877368146  826.744839366274 28.3286059479939 828.6682375506   
! Port Impedance         50               0                50               0                
18                             0.215668184409834 -7.45106989611143 0.912698860341632 -101.263084013406 0.912698860341632 -101.263084013406 0.215536130945209 -7.57711337532359 
! Gamma         29.1524504454233 875.179022452301 29.7780334015107 877.201386311863 
! Port Impedance         50               0                50               0                
19                             0.209859771580886 -12.3984079130423 0.910446035520449 -106.737202722254 0.910446035520449 -106.737202722254 0.209721852916459 -12.5295691142669 
! Gamma         30.5755641439603 923.595813678939 31.2259950469073 925.716020588681 
! Port Impedance         50               0                50               0                
20                             0.202199437934582 -17.2909765921744 0.908534930935251 -112.221219749784 0.908534930935251 -112.221219749784 0.202056782272713 -17.4267668221937 
! Gamma         31.9961359445273 971.996410967672 32.6713337426158 974.213387078254 
! Port Impedance         50               0                50               0                
21                             0.192758967975328 -22.1149356737699 0.906918609107009 -117.719065314171 0.906918609107009 -117.719065314171 0.19261285841785 -22.2547414447395 
! Gamma         33.4132699915614 1020.38203808202 34.1130895410424 1022.69476433848 
! Port Impedance         50               0                50               0                
22                             0.181623802765489 -26.849540859198 0.905540476415573 -123.234031585252 0.905540476415573 -123.234031585252 0.181475684374856 -26.9925743476589 
! Gamma         34.8262415678261 1068.75391864923 35.5504836825421 1071.1614345311  
! Port Impedance         50               0                50               0                
23                             0.168895027104745 -31.4634925719023 0.904336191466552 -128.768669271217 0.904336191466552 -128.768669271217 0.168746522425492 -31.6087144462829 
! Gamma         36.234480187263  1117.11325588593 36.9829010416594 1119.61466129289 
! Port Impedance         50               0                50               0                
24                             0.154691905281671 -35.9088250800108 0.9032358284319  -134.324704694895 0.903235828431899 -134.324704694895 0.15454484601513 -36.0548193732334 
! Gamma         37.6375522629575 1165.46121718723 38.4098720395331 1168.0556728963  
! Port Impedance         50               0                50               0                
25                             0.139155333508503 -40.1099951041134 0.902166286346971 -139.902980972587 0.90216628634697 -139.902980972587 0.139011823783708 -40.254756348216 
! Gamma         39.0351440565709 1213.79892291475 39.8310547389625 1216.48564987451 
! Port Impedance         50               0                50               0                
26                             0.122453253517081 -43.9429762488727 0.901053910101651 -145.503427144559 0.901053910101651 -145.503427144559 0.122315797670369 -44.0835261716666 
! Gamma         40.427045355515  1262.12743865697 41.2462176946904 1264.90571644471 
! Port Impedance         50               0                50               0                
27                             0.104790867748986 -47.1917974354087 0.899827257116074 -151.125058854804 0.899827257116074 -151.125058854804 0.104662638715802 -47.3234468414713 
! Gamma         41.8131342628011 1310.44777037399 42.655223889152  1313.31693496763 
! Port Impedance         50               0                50               0                
28                             0.0864338094021008 -49.4488225095218 0.898419909730977 -156.766013338753 0.898419909730977 -156.766013338753 0.0863192524246345 -49.5636377562638 
! Gamma         43.1933632451168 1358.76086179748 44.0580159697572 1361.72030293474 
! Port Impedance         50               0                50               0                
29                             0.0677705980545779 -49.8566161623901 0.896773202617426 -162.423620042221 0.896773202617426 -162.423620042221 0.0676769318984176 -49.9400022763618 
! Gamma         44.5677465448898 1407.0675937114  45.4546029148502 1410.11675191062 
! Port Impedance         50               0                50               0                
30                             0.0495150117483265 -46.3423633776545 0.89483871296937 -168.0945062084  0.89483871296937 -168.0945062084  0.0494564405282493 -46.3657327837519 
! Gamma         45.9363489888266 1455.36878458474 46.8450481288069 1458.50714802187 
! Port Impedance         50               0                50               0                
31                             0.0335008447918862 -33.2398933061139 0.892580354345658 -173.774734432746 0.892580354345658 -173.774734432746 0.0335104158242652 -33.1609770704015 
! Gamma         47.2992761291556 1503.66519225753 48.2294589572893 1506.89229353482 
! Port Impedance         50               0                50               0                
32                             0.0254191515662299 -0.281517454866263 0.889975926384299 -179.459966726744 0.8899759263843  -179.459966726744 0.0255449712262384 -0.232295782062509 
! Gamma         48.656665681781  1551.95751641149 49.6079775510946 1555.27292935066 
! Port Impedance         50               0                50               0                
33                             0.0320859221018196 34.4844049957333 0.887018003118902 174.854352581143 0.887018003118902 174.854352581143 0.0322620757936486 34.2514501130422 
! Gamma         50.008680141096  1600.24640151406 50.9807729729453 1603.64973798365 
! Port Impedance         50               0                50               0                
34                             0.0473638919840171 49.0817196185067 0.88371408963391 169.172804477351 0.883714089633911 169.172804477351 0.0475248616404197 48.7553814915444 
! Gamma         51.3555004831645 1648.53244013354 52.348034455155  1652.02334699895 
! Port Impedance         50               0                50               0                
35                             0.0649998769031912 53.2249748509278 0.880086034570483 163.499803688036 0.880086034570484 163.499803688036 0.0651393160213738 52.8845321305947 
! Gamma         52.6973208332989 1696.81617639528 53.7099656872555 1700.39433259975 
! Port Impedance         50               0                50               0                
36                             0.0829567990710461 53.1415789381657 0.876168746504594 157.839418109693 0.876168746504594 157.839418109693 0.0830768120977764 52.8014268408862 
! Gamma         54.0343440113789 1745.0981095127  55.0667800230426 1748.76322331675 
! Port Impedance         50               0                50               0                
37                             0.100480568853168 51.1050467693685 0.87200831686406 152.195208481926 0.87200831686406 152.195208481926 0.100583252107762 50.767098437127  
! Gamma         55.3667778257931 1793.37869731977 56.4186964975123 1797.13050368502 
! Port Impedance         50               0                50               0                
38                             0.117184295030748 48.043071806869  0.867659693380045 146.570095753506 0.867659693380046 146.570095753506 0.117271280846089 47.7069493981461 
! Gamma         56.6948320380853 1841.65835965078 57.7659365459346 1845.49661783688 
! Port Impedance         50               0                50               0                
39                             0.132818363109579 44.3921357858074 0.863184071270334 140.966261293989 0.863184071270335 140.966261293989 0.13289104087667 44.0571953949811 
! Gamma         58.0187158932198 1889.93748164338 59.1087213419839 1893.86197295781 
! Port Impedance         50               0                50               0                
40                             0.147200589994811 40.3822129016773 0.858646173028792 135.385082578362 0.858646173028792 135.385082578362 0.147260290449184 40.0479646028048 
! Gamma         59.3386361446529 1938.2164168586  60.4472696527814 1942.22694258486 
! Port Impedance         50               0                50               0                
41                             0.160190530999783 36.1453911644341 0.854111573791389 129.827104537846 0.854111573791388 129.827104537846 0.160238641337274 35.811567348273  
! Gamma         60.6547955015668 1986.49549017326 61.7817961538252 1990.59186969181 
! Port Impedance         50               0                50               0                
42                             0.171678182761929 31.762742118434  0.849644202187872 124.292044713767 0.849644202187872 124.292044713767 0.171716216911869 31.4292892325208 
! Gamma         61.9673914219592 2034.77500055224 63.1125101106584 2038.95706958841 
! Port Impedance         50               0                50               0                
43                             0.181578006388402 27.2866992505733 0.845304112129789 118.778828787186 0.845304112129789 118.778828787186 0.181607649430588 26.9537591599284 
! Gamma         63.2766152058438 2083.05522356087 64.4396143936441 2087.32283261248 
! Port Impedance         50               0                50               0                
44                             0.18982513298275 22.7526835160581 0.841145584878474 113.285652087066 0.841145584878474 113.285652087066 0.189848271278721 22.4205804973277 
! Gamma         64.5826513437001 2131.33641369921 65.7633047487855 2135.68942660057 
! Port Impedance         50               0                50               0                
45                             0.196372587825799 18.1856064903432 0.837215587772694 107.810062263913 0.837215587772694 107.810062263913 0.196391331879559 17.8548431733828 
! Gamma         65.885677063661  2179.61880654146 67.0837693025147 2184.05709917812 
! Port Impedance         50               0                50               0                
46                             0.201189099630009 13.6037723026346 0.833552589508726 102.349058344838 0.833552589508725 102.349058344838 0.201205804213518 13.2750349672036 
! Gamma         67.1858620466125 2227.90262070047 68.4011882381093 2232.42607982968 
! Port Impedance         50               0                50               0                
47                             0.20425734876262 9.02139687873266 0.830185713464112 96.8992017453177 0.830185713464111 96.8992017453177 0.204274633572487 8.6955702265584  
! Gamma         68.4833682884478 2276.18805961068 69.7157336318582 2280.79658180652 
! Port Impedance         50               0                50               0                
48                             0.205572621778979 4.45037734145783 0.827134200479665 91.4567353537792 0.827134200479665 91.4567353537792 0.20559339537779 4.12856944245982 
! Gamma         69.7783500655553 2324.47531313941 71.0275694015455 2329.16880384247 
! Port Impedance         50               0                50               0                
49                             0.205141880194913 -0.0983320386596701 0.824407149844223 86.0177073826113 0.824407149844223 86.0177073826113 0.205169369999436 -0.414753081441675 
! Gamma         71.07095399501   2372.7645590545  72.3368513596794 2377.54293174002 
! Port Impedance         50               0                50               0                
50                             0.202983260969022 -4.61351252765156 0.822003510371024 80.5780972064999 0.822003510371025 80.5780972064999 0.203021052563368 -4.92286756864064 
! Gamma         72.3613191603195 2421.05596435247 73.6437273399852 2425.91913974558 
! Port Impedance         50               0                50               0                
51                             0.199126023887772 -9.08247318954524 0.819912300486217 75.1339407906093 0.819912300486216 75.1339407906093 0.199178114055006 -9.38270260432721 
! Gamma         73.6495772993685 2469.34968644595 74.9483373832947 2474.29759186516 
! Port Impedance         50               0                50               0                
52                             0.19361095748006 -13.4896810649095 0.818113045092933 69.6814535102884 0.818113045092933 69.6814535102884 0.193681827278538 -13.7782509216458 
! Gamma         74.9358530239834 2517.6458742426  76.2508139690281 2522.67844297588 
! Port Impedance         50               0                50               0                
53                             0.186491258100092 -17.8150323126893 0.816576425645316 64.2171481702343 0.816576425645316 64.2171481702343 0.186585975569574 -18.0888075233178 
! Gamma         76.2202640782707 2565.94466909673 77.5512822825025 2571.06183987613 
! Port Impedance         50               0                50               0                
54                             0.17783391623937 -22.0314772798832 0.81526514655084 58.7379458517853 0.81526514655084 58.7379458517853 0.177958283664809 -22.2865496286979 
! Gamma         77.5029216161606 2614.24620568987 78.8498605029471 2619.44792220195 
! Port Impedance         50               0                50               0                
55                             0.167721697192629 -26.1015325435386 0.81413502408614 53.2412769198565 0.81413502408614 53.2412769198565 0.167882466804712 -26.3329871574017 
! Gamma         78.7839304882898 2662.55061279248 80.1466601109832 2667.83682325343 
