! Touchstone file exported from HFSS 2024.2.0
!        File:           C:/Users/vaintrug/Documents/Ansoft_Workspace/Comparaison_Calculs_HFSS/1_VarPort.aedt
!        Generated:      03:22:16 PM Jan 21, 2025
!        Design:         1_NoDeembed_FacePortFree
!        Project:        1_VarPort
!        Setup:          Setup1
!        Solution:       Sweep
!
! Variables:
!        $Lenght = 1500um
!        $PortSize = 180um
!        Gap = 30um
!        Th = 2um
!        X_centralStrip = 20um
!        X_masse = 200um
!        Y_Sub = 1.5mm
!        Z_Box = 400um
!        Z_Sub = 200um
!
# GHz S MA R 50.000000
! Terminal data exported
! Port[1] = 1
! Port[2] = 2
1                              0.0208689582459422 62.6555760726229 0.989067831759293 -4.43124621559493 0.989067831759293 -4.43124621559492 0.0208685747687179 62.642077348316  
! Gamma         5.75966606126712 49.7101568267146 5.91567341427131 50.1004172298841 
! Port Impedance         50               0                50               0                
2                              0.0372666406940889 69.5818796263399 0.986518144412029 -8.7597963335415 0.986518144412029 -8.75979633354151 0.0372627478849435 69.5580952149456 
! Gamma         7.43847839102059 98.1479294263981 7.7527779403319  98.8340332956488 
! Port Impedance         50               0                50               0                
3                              0.0540160500069429 69.9446923983175 0.984021889892046 -13.0920880350361 0.984021889892046 -13.0920880350361 0.0540076269607411 69.9120026452989 
! Gamma         8.80046198965811 146.660067961722 9.2237033085187  147.549498349448 
! Port Impedance         50               0                50               0                
4                              0.0706341933742462 68.1132397682833 0.981274148710107 -17.4225197932075 0.981274148710106 -17.4225197932075 0.0706205470103604 68.0712609635278 
! Gamma         10.0983822413919 195.238606938005 10.5866333520747 196.322473905518 
! Port Impedance         50               0                50               0                
5                              0.0868588558897214 65.3184389394598 0.978229771804611 -21.7454449132785 0.978229771804611 -21.7454449132785 0.086839138201977 65.2667221005205 
! Gamma         11.3943352480476 243.845019067546 11.9289259722739 245.128607853579 
! Port Impedance         50               0                50               0                
6                              0.102521765017891 62.0316216280273 0.974902783741595 -26.0569074784906 0.974902783741595 -26.0569074784906 0.102495016636504 61.9697671559018 
! Gamma         12.7056591106785 292.45790280905  13.2792577829654 293.946220162802 
! Port Impedance         50               0                50               0                
7                              0.11749743158175 58.4698408166169 0.971327500674627 -30.3539999706381 0.971327500674627 -30.3539999706381 0.117462625655122 58.3974603689677 
! Gamma         14.0371583409487 341.065355721527 14.6472440323268 342.76152659895  
! Port Impedance         50               0                50               0                
8                              0.131685212063859 54.746610059402  0.96754748040453 -34.6345683919711 0.967547480404529 -34.6345683919711 0.131641276213056 54.6632945581312 
! Gamma         15.3892536263205 389.660265059494 16.0354299908582 391.565842576715 
! Port Impedance         50               0                50               0                
9                              0.145002216110073 50.9269747600608 0.963610850900469 -38.8970871801905 0.963610850900469 -38.8970871801905 0.144948042549788 50.8322738445342 
! Gamma         16.7605592244042 438.238173915219 17.4433855257269 440.353585436001 
! Port Impedance         50               0                50               0                
10                             0.157379961623885 47.0507726593993 0.959567578207405 -43.1405948357659 0.959567578207406 -43.1405948357658 0.157314411288723 46.9441803720919 
! Gamma         18.1488833761523 486.796275489394 18.8693256266515 489.121163075672 
! Port Impedance         50               0                50               0                
11                             0.168762403011361 43.1436008571415 0.955467529453384 -47.3646481705861 0.955467529453384 -47.3646481705861 0.168684306240328 43.0245439507751 
! Gamma         19.5516921607188 535.332891031457 20.310847846117  537.866349573377 
! Port Impedance         50               0                50               0                
12                             0.179104479648354 39.2224593219488 0.951358986653975 -51.5692797899154 0.951358986653976 -51.5692797899154 0.179012634520039 39.0902862878849 
! Gamma         20.966357201627  583.847165336947 21.7653106656598 586.587909465726 
! Port Impedance         50               0                50               0                
13                             0.188370871977339 35.2988741834062 0.947287490021586 -55.7549538422584 0.947287490021587 -55.7549538422584 0.188264040768266 35.1528438429779 
! Gamma         22.3903010130275 632.338867701661 23.2300461730684 635.285351465731 
! Port Impedance         50               0                50               0                
14                             0.196534860035196 31.3807388844161 0.943294954470952 -59.9225191696374 0.943294954470951 -59.9225191696374 0.196411764005365 31.2200078077543 
! Gamma         23.8210860559297 680.808248234414 24.7024862313466 683.95875312419  
! Port Impedance         50               0                50               0                
15                             0.203577260391126 27.4734630737976 0.939419020910803 -64.0731605489583 0.939419020910803 -64.0731605489583 0.20343657295451 27.2970711799527 
! Gamma         25.2564688505639 729.255926235821 26.1802382218976 732.608627505023 
! Port Impedance         50               0                50               0                
16                             0.209485447859325 23.5807285515362 0.935692608033191 -68.2083491403383 0.93569260803319 -68.2083491403383 0.209325786113478 23.3875823065188 
! Gamma         26.6944303820154 777.682799796446 27.6611285223388 781.235817119114 
! Port Impedance         50               0                50               0                
17                             0.214252476791984 19.7050127163677 0.932143631594566 -72.3297932141696 0.932143631594566 -72.3297932141696 0.214072391290722 19.4938652478126 
! Gamma         28.1331896723227 826.089970994746 29.1432242506581 829.841407554835 
! Port Impedance         50               0                50               0                
18                             0.217876316005477 15.8479698895827 0.928794859975295 -76.4393900136022 0.928794859975294 -76.4393900136022 0.217674278573246 15.6173972304491 
! Gamma         29.5712052435759 874.478683699261 30.6248397660997 878.426656333872 
! Port Impedance         50               0                50               0                
19                             0.220359207578304 12.0107240751922 0.925663877733122 -80.5391793154919 0.925663877733121 -80.5391793154919 0.220133596848937 11.7590965372597 
! Gamma         31.0071679210337 922.850272101459 32.1045325822168 926.992934361153 
! Port Impedance         50               0                50               0                
20                             0.221707154800559 8.19410664740014 0.92276313289424 -84.6312990274472 0.922763132894239 -84.6312990274472 0.221456239026516 7.91955409202778 
! Gamma         32.4399877600006 971.206118641393 33.5810919789717 975.541678223338 
! Port Impedance         50               0                50               0                
21                             0.221929540210591 4.39886147518259 0.92010004827934 -88.7179429565819 0.92010004827934 -88.7179429565819 0.221651456696088 4.0992308369631  
! Gamma         33.8687771017848 1019.54762026616 35.0535228767373 1024.07435180919 
! Port Impedance         50               0                50               0                
22                             0.221038871074504 0.625834016025995 0.917677181855745 -92.8013207566889 0.917677181855745 -92.8013207566889 0.220731601335222 0.298636954973237 
! Gamma         35.2928315193524 1067.87616185026 36.5210269283394 1072.59241595335 
! Port Impedance         50               0                50               0                
23                             0.219050646921322 -3.12384186486421 0.915492425603615 -96.8836199856857 0.915492425603615 -96.8836199856857 0.218711986330195 -3.4814940143054 
! Gamma         36.7116098704755 1116.19309589853 37.9829822315082 1121.09730507763 
! Port Impedance         50               0                50               0                
24                             0.21598334166727 -6.84854615222607 0.913539236467584 -100.966970190222 0.913539236467584 -100.966970190222 0.215610861858242 -7.24002395244148 
! Gamma         38.124714365043  1164.49972758073 39.4389227967702 1169.59040967241 
! Port Impedance         50               0                50               0                
25                             0.21185849165134 -10.5459493971656 0.911806896409231 -105.053408945556 0.911806896409233 -105.053408945556 0.211449493276577 -10.9752085776029 
! Gamma         39.5318713720254 1212.79730415298 40.8885185111727 1218.07306377092 
! Port Impedance         50               0                50               0                
26                             0.206700880025608 -14.2127456081399 0.910280801418331 -109.14484984258 0.910280801418332 -109.14484984258 0.206252332457133 -14.6844592289972 
! Gamma         40.9329133708308 1261.08700810381 42.3315561470954 1266.54653638521 
! Port Impedance         50               0                50               0                
27                             0.200538808184089 -17.8443164084182 0.908942781356608 -113.24305247763 0.908942781356609 -113.24305247763 0.200047271302452 -18.3640459392512 
! Gamma         42.3277623481222 1309.36995320023 43.7679217377343 1315.01202635286 
! Port Impedance         50               0                50               0                
28                             0.193404445764896 -21.4342902658036 0.907771453873681 -117.349594605619 0.907771453873681 -117.349594605619 0.1928659667678  -22.0087098782622 
! Gamma         43.7164147750995 1357.64718289229 45.1975845255132 1363.47065977419 
! Port Impedance         50               0                50               0                
29                             0.185334253873567 -24.9739418483229 0.906742616103646 -121.465846700446 0.906742616103646 -121.465846700447 0.184744228653474 -25.6111365667718 
! Gamma         45.0989282036539 1405.91967051376 46.6205825505423 1411.92348945884 
! Port Impedance         50               0                50               0                
30                             0.176369482033473 -28.4513449188428 0.905829677619073 -125.592949273979 0.905829677619073 -125.592949273979 0.175722465339421 -29.1612129723897 
! Gamma         46.47540947661   1454.18832083175 48.0370098840499 1460.37149598663 
! Port Impedance         50               0                50               0                
31                             0.166556751242765 -31.8501376155273 0.905004137039205 -129.731793384488 0.905004137039205 -129.731793384488 0.16584619119807 -32.6449423873512 
! Gamma         47.8460044470299 1502.45397259396 49.4470054385246 1508.81558992698 
! Port Impedance         50               0                50               0                
32                             0.155948757824662 -35.147662044126 0.904236102905145 -133.883004841729 0.904236102905145 -133.883004841729 0.155166615968728 -36.0428027051313 
! Gamma         49.2108891444076 1550.71740175207 50.8507432797664 1557.25661482983 
! Port Impedance         50               0                50               0                
33                             0.144605175930827 -38.3120616581239 0.903494856921557 -138.046932646475 0.903494856921558 -138.046932646475 0.143741369157931 -39.3271692132061 
! Gamma         50.5702622165654 1598.97932513108 52.2484242963623 1605.69535083497 
! Port Impedance         50               0                50               0                
34                             0.132593921158358 -41.2975774419524 0.902749454650208 -142.223642226796 0.902749454650208 -142.223642226796 0.131635477639348 -42.4581027554929 
! Gamma         51.9243385541037 1647.24040434357 53.6402691289448 1654.13251856713 
! Port Impedance         50               0                50               0                
35                             0.119993111502907 -44.0365950236413 0.901969355294977 -146.412913983752 0.901969355294976 -146.412913983752 0.11892285054527 -45.3761472656125 
! Gamma         53.2733439556416 1695.50124981147 55.02651220106   1702.56878324928 
! Port Impedance         50               0                50               0                
36                             0.106894437787187 -46.4255326152199 0.901125068689784 -150.614247597398 0.901125068689784 -150.614247597398 0.1056888247167  -47.9893509141128 
! Gamma         54.6175107000586 1743.76242477989 56.4073967458934 1751.00475882159 
! Port Impedance         50               0                50               0                
37                             0.093409527185949 -48.2983656421798 0.900188804173554 -154.826872405775 0.900188804173555 -154.826872405775 0.0920350349545192 -50.148387969378 
! Gamma         55.9570739292521 1792.02444923755 57.7831706918155 1799.44101203832 
! Port Impedance         50               0                50               0                
38                             0.0796830717284093 -49.3736747581132 0.899135103148798 -159.049764012802 0.899135103148798 -159.049764012802 0.0780897220418957 -51.5952204086087 
! Gamma         57.2922686930512 1840.28780369695 59.1540832963915 1847.8780664209  
! Port Impedance         50               0                50               0                
39                             0.0659225166119823 -49.1409751362395 0.897941434988691 -163.281667059767 0.897941434988692 -163.281667059767 0.0640319595394408 -51.8474180466778 
! Gamma         58.6233276135585 1888.55293278186 60.5203824313817 1896.31640605605 
! Port Impedance         50               0                50               0                
40                             0.0524723124723687 -46.6000904362528 0.896588734988121 -167.521123867762 0.896588734988121 -167.521123867762 0.0501559953212799 -49.9102427268773 
! Gamma         59.9504790253513 1936.8202485944  61.8823124193945 1944.75647918924 
! Port Impedance         50               0                50               0                
41                             0.0400188013786923 -39.6619128520396 0.8950618634017  -171.766508402953 0.8950618634017  -171.766508402953 0.0370683488404731 -43.5000764058388 
! Gamma         61.2739455513415 1985.09013386366 63.240112338103  1993.19870157731 
! Port Impedance         50               0                50               0                
42                             0.0301566804602044 -24.2688941872998 0.8933499664276  -176.016064774228 0.8933499664276  -176.016064774228 0.0263551064114146 -27.2664784786786 
! Gamma         62.5939430316785 2033.36294487417 64.5940147262521 2041.64345963768 
! Port Impedance         50               0                50               0                
43                             0.0261818404099123 2.23170557094175 0.891446723255134 179.732050758771 0.891446723255134 179.732050758771 0.0220360274020454 4.31113289450191 
! Gamma         63.9106797446854 2081.63901413217 65.9442446153288 2090.09111334557 
! Port Impedance         50               0                50               0                
44                             0.0304481255986864 28.2243120639756 0.889350467832559 175.47972546042  0.889350467832559 175.47972546042  0.0272838197585846 34.2916549887897 
! Gamma         65.2243558718408 2129.91865283642 67.2910188457686 2138.54199889709 
! Port Impedance         50               0                50               0                
45                             0.0402586637180455 42.9820090068307 0.887064179498222 171.228844806162 0.887064179498222 171.228844806162 0.0381775906854835 48.9050939449826 
! Gamma         66.5351631662135 2178.20215312904 68.6345456060198 2186.99643115802 
! Port Impedance         50               0                50               0                
46                             0.0523702828129857 49.5875029325431 0.884595342657675 166.981247561899 0.884595342657674 166.981247561899 0.0510000928493673 54.5883285119894 
! Gamma         67.8432847861344 2226.48979012872 69.9750241605219 2235.45470589553 
! Port Impedance         50               0                50               0                
47                             0.0652631207996004 51.9788256035182 0.881955681769785 162.738682625385 0.881955681769785 162.738682625385 0.0643526978738555 56.210353810978  
! Gamma         69.1488952487571 2274.78182378862 71.3126447323502 2283.91710181099 
! Port Impedance         50               0                50               0                
48                             0.0782854333503839 52.1538128025744 0.87916078354788 158.502768905369 0.879160783547881 158.502768905369 0.077692636519933 55.8229087286429 
! Gamma         70.4521605002343 2323.07850056188 72.6475885066101 2332.3838823724  
! Port Impedance         50               0                50               0                
49                             0.0911116195181247 51.0712623631632 0.876229623030494 154.274959370897 0.876229623030494 154.274959370897 0.0907533560662475 54.3310100706119 
! Gamma         71.7532380638004 2371.38005492104 73.9800277313676 2380.85529748411 
! Port Impedance         50               0                50               0                
50                             0.103548374257574 49.2230161147346 0.873184013706072 150.056510190376 0.873184013706073 150.056510190376 0.10337323546773 52.1795700080426 
! Gamma         73.0522772452299 2419.68671070052 75.3101258965228 2429.33158499046 
! Port Impedance         50               0                50               0                
51                             0.115464133425087 46.8816195219178 0.870048003963661 145.84845565123  0.870048003963662 145.84845565123  0.115438646780672 49.6093927186229 
! Gamma         74.3494193982321 2467.99868232249 76.6380379678778 2477.81297201757 
! Port Impedance         50               0                50               0                
52                             0.12676064266785 44.2086907973837 0.866847242758424 141.651589289005 0.866847242758424 141.651589289005 0.126862109170346 46.7613179514395 
! Gamma         75.6447982101365 2516.31617589231 77.9639106707231 2526.29967620041 
! Port Impedance         50               0                50               0                
53                             0.137360257704552 41.3056270498354 0.863608336601512 137.466451408535 0.863608336601512 137.466451408535 0.137572811742269 43.7229849994298 
! Gamma         76.9385400238285 2564.63939016856 79.2878827994769 2574.79190675985 
! Port Impedance         50               0                50               0                
54                             0.147199707632812 38.239065934372  0.860358218027143 133.293322944285 0.860358218027142 133.293322944285 0.147512034608027 40.5517246547526 
! Gamma         78.2307641703942 2612.96851743145 80.6100855540012 2623.28986548945 
! Port Impedance         50               0                50               0                
55                             0.15622673734903 35.0545121282089 0.857123542862031 129.132225404036 0.857123542862033 129.132225404036 0.156630691516707 37.2866078826433 
