! Touchstone file exported from HFSS 2024.2.0
!        File:           C:/Users/vaintrug/Documents/Ansoft_Workspace/Comparaison_Calculs_HFSS/1_VarPort.aedt
!        Generated:      03:22:16 PM Jan 21, 2025
!        Design:         1_NoDeembed_FacePortFree
!        Project:        1_VarPort
!        Setup:          Setup1
!        Solution:       Sweep
!
! Variables:
!        $Lenght = 1500um
!        $PortSize = 140um
!        Gap = 30um
!        Th = 2um
!        X_centralStrip = 20um
!        X_masse = 200um
!        Y_Sub = 1.5mm
!        Z_Box = 400um
!        Z_Sub = 200um
!
# GHz S MA R 50.000000
! Terminal data exported
! Port[1] = 1
! Port[2] = 2
1                              0.021178974483558 62.9559125418871 0.989058681387188 -4.43825614801448 0.989058681387188 -4.43825614801448 0.0211774543290331 62.9686518859554 
! Gamma         5.73525766176493 49.8622385764345 5.7859940968301  49.8651109923038 
! Port Impedance         50               0                50               0                
2                              0.0378988090663145 69.7151395804722 0.986496100783194 -8.772832958602  0.986496100783195 -8.772832958602  0.0378960258216972 69.7448499072001 
! Gamma         7.47787797051372 98.439942080639  7.50176001421948 98.4211748817534 
! Port Impedance         50               0                50               0                
3                              0.0549638531633073 69.9862687759391 0.983976897270203 -13.1113201653671 0.983976897270204 -13.1113201653671 0.0549606598994116 70.0326644861214 
! Gamma         8.88349368111412 147.047338329558 8.88422009508138 147.040337691069 
! Port Impedance         50               0                50               0                
4                              0.0718876129400442 68.0944362412837 0.981195574248569 -17.4477294910203 0.981195574248567 -17.4477294910203 0.0718849004174648 68.1575494776774 
! Gamma         10.2066969611956 195.715888314277 10.1948266668704 195.726351343471 
! Port Impedance         50               0                50               0                
5                              0.0884066951102912 65.2547024325334 0.978108411980058 -21.7762974726122 0.978108411980058 -21.7762974726122 0.0884053874940073 65.3346979006869 
! Gamma         11.5196270318233 244.413854172479 11.5003502062903 244.44164081328  
! Port Impedance         50               0                50               0                
6                              0.104351698284489 61.9314044015057 0.974730739241315 -26.0929905790912 0.974730739241315 -26.0929905790912 0.10435271309993 62.028541779657  
! Gamma         12.8442440170763 293.120220319683 12.8199508998349 293.164401723906 
! Port Impedance         50               0                50               0                
7                              0.119596015482581 58.3381798014234 0.971098241276199 -30.394838462658 0.971098241276199 -30.394838462658 0.119600250363941 58.4528079439733 
! Gamma         14.1874136036004 341.822566503601 14.1592042177992 341.882326462044 
! Port Impedance         50               0                50               0                
8                              0.134038019308459 54.5866997135104 0.967255928091862 -34.6796377032465 0.967255928091861 -34.6796377032466 0.134046354530671 54.7192550526042 
! Gamma         15.5505407693594 390.513258663703 15.5188952765298 390.588006143958 
! Port Impedance         50               0                50               0                
9                              0.147594027873585 50.7409198956845 0.963253426868066 -38.9458270327591 0.963253426868066 -38.9458270327591 0.147607335351386 50.8919267754551 
! Gamma         16.932741795997  439.18742995467  16.8978247445115 439.276769135651 
! Port Impedance         50               0                50               0                
10                             0.160194973537952 46.8399750145614 0.959142205448096 -43.1924229059805 0.959142205448096 -43.1924229059805 0.160214128103237 47.010048014567  
! Gamma         18.3320913482089 487.841961259442 18.2938993382837 487.94564697543  
! Port Impedance         50               0                50               0                
11                             0.171784419577889 42.908967726666  0.95497359495024 -47.4189732536363 0.954973594950239 -47.4189732536363 0.171810310788529 43.0988160305852 
! Gamma         19.7461966925872 536.474932577738 19.7046354333159 536.592833865804 
! Port Impedance         50               0                50               0                
12                             0.182317083057349 38.9645191870817 0.950797270624041 -51.6255141280497 0.95079727062404 -51.6255141280497 0.182350626816196 39.174953037557  
! Gamma         21.1724987763273 585.085298631662 21.1274262423476 585.217371595235 
! Port Impedance         50               0                50               0                
13                             0.191757557844153 35.0178404772959 0.946660070362851 -55.8125243908384 0.946660070362851 -55.8125243908384 0.191799707561143 35.249779756809  
! Gamma         22.6084455492244 633.672676246577 22.5596976944927 633.818943993396 
! Port Impedance         50               0                50               0                
14                             0.200079136586183 31.0765429555805 0.942605094166222 -59.9808776889405 0.942605094166222 -59.9808776889405 0.200130893875574 31.3310281426958 
! Gamma         24.0515969697887 682.237191814851 23.999003707906  682.397729211429 
! Port Impedance         50               0                50               0                
15                             0.207262710640433 27.1457676264905 0.938671045108014 -64.1317924813315 0.938671045108015 -64.1317924813314 0.207325135690834 27.4239733673757 
! Gamma         25.4996888535164 730.779363876716 25.4430843332384 730.954285558931 
! Port Impedance         50               0                50               0                
16                             0.213295756285693 23.2289276839217 0.934891776220749 -68.2667812921514 0.934891776220748 -68.2667812921515 0.213369978168662 23.5321794177897 
! Gamma         26.9506697187965 779.300008588567 26.8898989105797 779.489459299285 
! Port Impedance         50               0                50               0                
17                             0.218171423150286 19.3282217772004 0.931296008942908 -72.3876003166035 0.931296008942908 -72.3876003166035 0.21825865043785 19.6580159912069 
! Gamma         28.4027188223592 827.800161874343 28.3376416514036 828.004308469685 
! Port Impedance         50               0                50               0                
18                             0.221887739935383 15.4450066976063 0.927907190532059 -76.4962002360238 0.927907190532059 -76.4962002360238 0.221989272088351 15.8030355270924 
! Gamma         29.8542508685374 876.281014814663 29.784744583382  876.500039595476 
! Port Impedance         50               0                50               0                
19                             0.224446947832023 11.5800818497209 0.924743461022809 -80.5946788327353 0.924743461022809 -80.5946788327353 0.22456418793723 11.9682630043942 
! Gamma         31.3039112191105 924.743860149519 31.2298715165098 924.977955262761 
! Port Impedance         50               0                50               0                
20                             0.225854967102329 7.73391815049278 0.921817704461897 -84.6852357277692 0.921817704461898 -84.6852357277692 0.225989436671587 8.15443146096995 
! Gamma         32.7505645688689 973.190048479455 32.6719058001732 973.439411194898 
! Port Impedance         50               0                50               0                
21                             0.22612099764573 3.90685309016836 0.919137663948309 -88.7701293661671 0.91913766394831 -88.7701293661671 0.22627435435371 4.36218531805762 
! Gamma         34.1932793465614 1021.62095290484 34.1099340350983 1021.88578173244 
! Port Impedance         50               0                50               0                
22                             0.225257250684755 0.0992676566314794 0.916706104905347 -92.8516362326868 0.916706104905347 -92.8516362326868 0.225431310171492 0.592267813155787 
! Gamma         35.631309556938  1070.03794107497 35.5432274713324 1070.3184325413  
! Port Impedance         50               0                50               0                
23                             0.223278805705969 -3.6882421044618 0.914521015752857 -96.9320122155078 0.914521015752857 -96.9320122155078 0.223475568902396 -3.15429396234815 
! Gamma         37.0640754528196 1118.44235361435 36.9712223411753 1118.73869970467 
! Port Impedance         50               0                50               0                
24                             0.220203584715003 -7.45468698072534 0.91257583939242 -101.013456000987 0.912575839392421 -101.013456000987 0.220425272629288 -6.87599346058962 
! Gamma         38.4911439996906 1166.8354880066  38.3935001464011 1167.14787411329 
! Port Impedance         50               0                50               0                
25                             0.216052434339123 -11.1984870948371 0.910859732574437 -105.098074410622 0.910859732574437 -105.098074410622 0.216301532937025 -10.5706241962622 
! Gamma         39.9122098462256 1215.21858708314 39.8097685136832 1215.54719045066 
! Port Impedance         50               0                50               0                
26                             0.210849305161698 -14.9172393170233 0.909357853209039 -109.187849645172 0.909357853209039 -109.187849645172 0.211128624006668 -14.2350165237404 
! Gamma         41.3270773401145 1263.59283123217 41.21984318523   1263.93781984158 
! Port Impedance         50               0                50               0                
27                             0.204621517330192 -18.6074283673304 0.908051677874594 -113.284608477701 0.908051677874595 -113.284608477701 0.204934267147273 -17.864707428931 
! Gamma         42.7356438288856 1311.95933376927 42.623631358912  1312.32086552211 
! Port Impedance         50               0                50               0                
28                             0.1974001015582  -22.2640510820141 0.906919353252156 -117.389993537046 0.906919353252157 -117.389993537046 0.19774999820727 -21.4535081407208 
! Gamma         44.1378844937249 1360.3191386918  44.0211165769433 1360.69736092186 
! Port Impedance         50               0                50               0                
29                             0.189220206263225 -25.8801074812746 0.905936085830147 -121.505436925111 0.905936085830148 -121.505436925111 0.189611612149893 -24.9929163162104 
! Gamma         45.5338387441858 1408.67322035699 45.4123452142374 1409.06826960235 
! Port Impedance         50               0                50               0                
30                             0.18012156528876 -29.4458855569393 0.905074574046632 -125.632136516434 0.905074574046633 -125.632136516434 0.180559684858792 -28.4712890283828 
! Gamma         46.9235981695552 1457.02248463015 46.7974145481582 1457.43448655412 
! Port Impedance         50               0                50               0                
31                             0.170149028495965 -32.9479202888852 0.904305486043959 -129.771035383604 0.904305486043958 -129.771035383604 0.170640183577844 -31.8726403348566 
! Gamma         48.3072960126698 1505.3677710746  48.1764623426947 1505.79684059853 
! Port Impedance         50               0                50               0                
32                             0.159353173318181 -36.3674244777373 0.90359798438418 -133.922804868461 0.903597984384181 -133.922804868461 0.159905199317827 -35.1748342201005 
! Gamma         49.685098055621  1553.70985593491 49.5496578630043 1554.15609744095 
! Port Impedance         50               0                50               0                
33                             0.147791046098604 -39.6778350497437 0.902920296565237 -138.087831878476 0.902920296565238 -138.087831878476 0.148413876349449 -38.3467730558302 
! Gamma         51.0571947993248 1602.04945558251 50.9171941744364 1602.51296324757 
! Port Impedance         50               0                50               0                
34                             0.135527143796669 -42.8408202276302 0.902240326992231 -142.266210994499 0.90224032699223 -142.266210994498 0.136233696533783 -41.3438552020819 
! Gamma         52.4237948388381 1650.38723029027 52.2792816268125 1650.86808847687 
! Port Impedance         50               0                50               0                
35                             0.12263487442506 -45.7994845627807 0.901526302474468 -146.457741962968 0.901526302474468 -146.457741962968 0.123442444825048 -44.1003211264659 
! Gamma         53.7851192778654 1698.72378817536 53.6361423952381 1699.2220718395  
! Port Impedance         50               0                50               0                
36                             0.109199014888051 -48.4661926774237 0.900747439500103 -150.661933065918 0.900747439500103 -150.661933065918 0.110131546172053 -46.5157246775378 
! Gamma         55.1413970849277 1747.0596891173  54.9880059187546 1747.57546428526 
! Port Impedance         50               0                50               0                
37                             0.0953203451537896 -50.6993829447627 0.899874617843086 -154.878010745311 0.899874617843087 -154.878010745311 0.0964123027138832 -48.429665966962 
! Gamma         56.4928612613149 1795.39544866813 56.3351051719582 1795.92877289947 
! Port Impedance         50               0                50               0                
38                             0.0811253388480398 -52.2560934423999 0.898881041788973 -159.104935685645 0.898881041788974 -159.104935685645 0.0824286531861743 -49.5715167321866 
! Gamma         57.839745710665  1843.73154181962 57.6776736166682 1844.28246467588 
! Port Impedance         50               0                50               0                
39                             0.0667886723334974 -52.6859615181265 0.897742867815045 -163.341425343217 0.897742867815045 -163.341425343217 0.0683857948131657 -49.4531033624674 
! Gamma         59.182282730273  1892.06840657839 59.0159427617863 1892.63697009622 
! Port Impedance         50               0                50               0                
40                             0.0525922210877162 -51.0698779396062 0.896439776246714 -167.58598267014 0.896439776246715 -167.58598267014 0.0546211750864864 -47.1237926135776 
! Gamma         60.5207010018015 1940.40644739014 60.3501402280609 1940.9926865351  
! Port Impedance         50               0                50               0                
41                             0.0391033090561211 -45.3171366608151 0.894955464497121 -171.836930505335 0.894955464497121 -171.836930505335 0.0417990343143959 -40.6051529465767 
! Gamma         61.8552240406073 1988.74603829858 61.6804882470285 1989.34998139862 
! Port Impedance         50               0                50               0                
42                             0.0277785778822606 -30.4642316337481 0.893278041156583 -176.092450854069 0.893278041156584 -176.092450854069 0.0314522890844702 -25.9932800965192 
! Gamma         63.1860690079334 2037.0875259141  63.0072025247715 2037.70919507856 
! Port Impedance         50               0                50               0                
43                             0.0224511480993158 -0.156664933035097 0.891400303407449 179.649371973544 0.891400303407449 179.649371973544 0.0268357318021016 -0.14949326508547 
! Gamma         64.5134458292111 2085.43123214862 64.3304914109742 2086.0706436562  
! Port Impedance         50               0                50               0                
44                             0.0269297055637422 31.2048165197181 0.889319884861694 175.390505595557 0.889319884861694 175.390505595557 0.0306413017780706 26.4138552825131 
! Gamma         65.8375565811427 2133.77745672302 65.6505553090501 2134.4346213972  
! Port Impedance         50               0                50               0                
45                             0.0377183901387356 47.1390071270058 0.88703926663647 171.132922532617 0.88703926663647 171.132922532617 0.0404116589208818 41.9471640699555 
! Gamma         67.1585950820748 2182.1264794566  66.96758630745   2182.80140301177 
! Port Impedance         50               0                50               0                
46                             0.0507256358630804 53.406035535123  0.884565650846233 166.878553371509 0.884565650846233 166.878553371509 0.052721344497423 48.9878397903658 
! Gamma         68.4767466584065 2230.47856238087 68.2817679700657 2231.17124573328 
! Port Impedance         50               0                50               0                
47                             0.0643654960379702 55.2852115027622 0.881910702194042 162.629241556013 0.881910702194042 162.629241556013 0.0659150994469167 51.6061172144436 
! Gamma         69.7921880570789 2278.83395162008 69.5932752668855 2279.54439119716 
! Port Impedance         50               0                50               0                
48                             0.078035405372763 55.0187266863633 0.879090169442041 158.386701166284 0.879090169442042 158.386701166284 0.0792867587088104 51.9084087698468 
! Gamma         71.1050874629182 2327.19287913122 70.9022746123856 2327.92106713327 
! Port Impedance         50               0                50               0                
49                             0.0914466144347542 53.5845455342677 0.876123403753251 154.152478889056 0.876123403753251 154.152478889056 0.092487997521109 50.9038805576035 
! Gamma         72.4156046100713 2375.55556425341 72.2089239913349 2376.30148890966 
! Port Impedance         50               0                50               0                
50                             0.104427280744643 51.4580308043211 0.873032794828942 149.927921180704 0.873032794828941 149.927921180704 0.105314465058476 49.1076129720674 
! Gamma         73.7238909658768 2423.92221511092 73.5133731526124 2424.68586090805 
! Port Impedance         50               0                50               0                
51                             0.116858056365488 48.8940901664402 0.869843148186968 145.714147367691 0.869843148186969 145.714147367691 0.117628335787008 46.8036487470592 
! Gamma         75.0300899610115 2472.29302987196 74.8157638494648 2473.07437776635 
! Port Impedance         50               0                50               0                
52                             0.128647723462513 46.0406946271313 0.866581027747529 141.512029169346 0.866581027747529 141.512029169346 0.129327323013293 44.1597464297954 
! Gamma         76.3343372655513 2520.6681978889  76.1162301221067 2521.46722549327 
! Port Impedance         50               0                50               0                
53                             0.139722746128209 42.9893419444942 0.863274087214658 137.322176853613 0.863274087214658 137.322176853613 0.140330930315296 41.280821068559  
! Gamma         77.6367610913043 2569.04790070363 77.41489860465   2569.86458246884 
! Port Impedance         50               0                50               0                
54                             0.150022270521951 39.7995514722914 0.859950411752243 133.144931993183 0.859950411752243 133.144931993183 0.150573740045682 38.2356561120125 
! Gamma         78.9374825106722 2617.43231296073 78.7118888508147 2618.26662032142 
! Port Impedance         50               0                50               0                
55                             0.159495463132518 36.5116651979522 0.856637888504159 128.980366563462 0.856637888504158 128.980366563462 0.160001819116417 35.0711407848893 
