! Touchstone file exported from HFSS 2024.2.0
!        File:           C:/Users/vaintrug/Documents/Ansoft_Workspace/Comparaison_Calculs_HFSS/1_VarPort.aedt
!        Generated:      03:22:19 PM Jan 21, 2025
!        Design:         1_NoDeembed_FacePortFree
!        Project:        1_VarPort
!        Setup:          Setup1
!        Solution:       Sweep
!
! Variables:
!        $Lenght = 2000um
!        $PortSize = 400um
!        Gap = 30um
!        Th = 2um
!        X_centralStrip = 20um
!        X_masse = 200um
!        Y_Sub = 2mm
!        Z_Box = 400um
!        Z_Sub = 200um
!
# GHz S MA R 50.000000
! Terminal data exported
! Port[1] = 1
! Port[2] = 2
1                              0.0275981204104533 61.1297407437022 0.985395117877591 -5.89908391893388 0.985395117877591 -5.89908391893388 0.0276028041661657 61.0861049214932 
! Gamma         5.96399972133693 50.140000402745  5.88903151287339 49.895270406687  
! Port Impedance         50               0                50               0                
2                              0.0490850098561214 66.6559636910648 0.981797511863783 -11.6581532944361 0.981797511863782 -11.6581532944361 0.0490762308095142 66.5742267802247 
! Gamma         7.77326698527537 98.9405561973631 7.63236207183683 98.5193241342346 
! Port Impedance         50               0                50               0                
3                              0.0707745647977394 65.6420861665313 0.978190853899299 -17.4171140573519 0.9781908538993  -17.4171140573519 0.0707461260874146 65.5325325023861 
! Gamma         9.22749352054362 147.739756959391 9.04693109586669 147.162653180416 
! Port Impedance         50               0                50               0                
4                              0.09194102416607 62.4447894442935 0.974190454520694 -23.1671998594292 0.974190454520695 -23.1671998594291 0.0918905162642866 62.3074963836113 
! Gamma         10.5837483543947 196.598154865343 10.3767753389782 195.865756495275 
! Port Impedance         50               0                50               0                
5                              0.112148134920073 58.2967045425079 0.969769859698297 -28.8992592306471 0.969769859698297 -28.8992592306471 0.112073100469466 58.1305405508178 
! Gamma         11.9238289692468 245.488376355644 11.6959170986887 244.59895186692  
! Port Impedance         50               0                50               0                
6                              0.13109802051195 53.6730556306364 0.964990659643148 -34.606944934169 0.964990659643148 -34.606944934169 0.13099577397082 53.4768706506995 
! Gamma         13.2738678026528 294.389012057443 13.0272037281575 293.341178122554 
! Port Impedance         50               0                50               0                
7                              0.148566429267097 48.7938606543714 0.959945275536145 -40.2860241270092 0.959945275536144 -40.2860241270091 0.148434190634183 48.5665510249725 
! Gamma         14.6424344103271 343.286848005038 14.3777399949376 342.07980849316  
! Port Impedance         50               0                50               0                
8                              0.164379076946359 43.774438355122  0.954738057552167 -45.9340155358502 0.954738057552166 -45.9340155358502 0.164214085792259 43.5148820792643 
! Gamma         16.0316153880994 392.173654543274 15.7489248985228 390.80709785127  
! Port Impedance         50               0                50               0                
9                              0.178401199196149 38.6806322294014 0.949475651757313 -51.5499931534371 0.949475651757311 -51.5499931534372 0.178200791611773 38.3876220784211 
! Gamma         17.4407613621142 441.044189173486 17.1397854038737 439.518163934231 
! Port Impedance         50               0                50               0                
10                             0.190531369348635 33.5522716738885 0.944260662356654 -57.1344287213213 0.944260662356654 -57.1344287213213 0.190293026532871 33.2244564421893 
! Gamma         18.8679756488421 489.895124424149 18.548285019227  488.209940401799 
! Port Impedance         50               0                50               0                
11                             0.200696758670184 28.414352930672  0.939187097201417 -62.689028540707 0.939187097201416 -62.6890285407071 0.200418133924473 28.0501819732586 
! Gamma         20.3107978715124 538.724451928472 19.9719216719807 536.880605854448 
! Port Impedance         50               0                50               0                
12                             0.208848999440076 23.2829117539582 0.934337111369948 -68.2165547649795 0.934337111369949 -68.2165547649794 0.208527927318156 22.8805770479454 
! Gamma         21.7665583676267 587.531123807196 21.4080380028604 585.529244136289 
! Port Impedance         50               0                50               0                
13                             0.214960481997286 18.1683952604488 0.929778811220033 -73.7206339238044 0.929778811220034 -73.7206339238044 0.214594971372947 17.7257657612015 
! Gamma         23.23257917302   636.314816292005 22.8539980179625 634.155621517531 
! Port Impedance         50               0                50               0                
14                             0.219021130930707 13.0777761604866 0.925564936690166 -79.2055590688974 0.925564936690165 -79.2055590688974 0.2186093423286  12.5923190827039 
! Gamma         24.7062938335903 685.075760187404 24.3072928061057 682.760026896518 
! Port Impedance         50               0                50               0                
15                             0.221035750577586 8.01600778141787 0.921732254877396 -84.6760918687481 0.921732254877397 -84.6760918687481 0.220575956830615 7.48469057047463 
! Gamma         26.1853193274355 733.814611084552 25.7656039048991 731.343149176669 
! Port Impedance         50               0                50               0                
16                             0.221022012225008 2.98713417127    0.918301513932274 -90.1372696379244 0.918301513932272 -90.1372696379244 0.220512540057854 2.40629911340635 
! Gamma         27.6674970951291 782.532345628497 27.2268389883454 779.905979025956 
! Port Impedance         50               0                50               0                
17                             0.219009118718252 -2.00475925389634 0.915277830851883 -95.594220728226 0.915277830851883 -95.594220728226 0.218448266874017 -2.63955898454087 
! Gamma         29.150912990984  831.230176595805 28.689148461319  828.449728246208 
! Port Impedance         50               0                50               0                
18                             0.215037145064362 -6.95462348338858 0.912651417512584 -101.051990422143 0.912651417512584 -101.051990422143 0.214423071757304 -7.64884242265739 
! Gamma         30.6339025095355 879.909482930218 30.1509286104315 876.975763206517 
! Port Impedance         50               0                50               0                
19                             0.209157022894468 -11.8554324392649 0.910398581741658 -106.515378665357 0.910398581741659 -106.515378665357 0.208487591049736 -12.6158299921359 
! Gamma         32.1150456611615 928.571752128043 31.6108152343958 925.485550055321 
! Port Impedance         50               0                50               0                
20                             0.201431115430037 -16.6969351971101 0.908482970001296 -111.988790698536 0.908482970001294 -111.988790698536 0.200703677299085 -17.5319878629403 
! Gamma         33.5931548496198 977.218533291032 33.0676708644971 973.980610006928 
! Port Impedance         50               0                50               0                
21                             0.19193432115003 -21.4639643016609 0.906857041845665 -117.476101826518 0.906857041845665 -117.476101826518 0.191145412491108 -22.3844501866533 
! Gamma         35.0672581510454 1025.8513993899  34.5205677897892 1022.46248349174 
! Port Impedance         50               0                50               0                
22                             0.180755656424218 -26.1339516585085 0.905463781146739 -122.980538046802 0.905463781146739 -122.980538046802 0.179900550680864 -27.1537995237428 
! Gamma         36.5365799574042 1074.47191756683 35.96876872987   1070.9327019909  
! Port Impedance         50               0                50               0                
23                             0.168000317104528 -30.6730230305271 0.904238653739814 -128.50457492858 0.904238653739814 -128.50457492858 0.167072354159243 -31.8105788820934 
! Gamma         38.0005203951646 1123.08162629699 37.4117064490786 1119.39276643872 
! Port Impedance         50               0                50               0                
24                             0.153792348600863 -35.0294591010528 0.903111814911143 -134.049857829475 0.903111814911143 -134.049857829475 0.152781884310667 -36.3094315410419 
! Gamma         39.458634566006  1171.68201836985 38.8489633497177 1167.84413119876 
! Port Impedance         50               0                50               0                
25                             0.138278366816863 -39.1220318198868 0.902010553307091 -139.617147001614 0.90201055330709 -139.617147001614 0.137171051728617 -40.5785733313952 
! Gamma         40.9106123899274 1220.27452879453 40.2802517192906 1216.28819277969 
! Port Impedance         50               0                50               0                
26                             0.121633540154624 -42.817716067697 0.900861932199758 -145.206291325587 0.900861932199757 -145.206291325587 0.120407340510642 -44.4994471827672 
! Gamma         42.3562595486937 1268.86052667366 41.7053951198713 1264.72628231702 
! Port Impedance         50               0                50               0                
27                             0.104073065925421 -45.8855775794609 0.899595557413498 -150.816234048452 0.899595557413498 -150.816234048452 0.102692763446104 -47.8639082843056 
! Gamma         43.7954798418956 1317.44131036256 43.1243112242658 1313.159661237   
! Port Impedance         50               0                50               0                
28                             0.0858783001617662 -47.8918891301194 0.898146368147239 -156.445052999016 0.898146368147239 -156.445052999016 0.084284552390132 -50.2742173348108 
! Gamma         45.2282591704732 1366.01810523122 44.5369962484788 1361.58951932389 
! Port Impedance         50               0                50               0                
29                             0.0674666336126266 -47.933129893531 0.896457317886129 -162.090036232541 0.896457317886127 -162.090036232541 0.0655525299715505 -50.876739633089 
! Gamma         46.6546511699891 1414.59206337839 45.9435110395106 1410.01697475315 
! Port Impedance         50               0                50               0                
30                             0.0496128667657255 -43.8727408292768 0.894481793444842 -167.747792045875 0.894481793444841 -167.747792045875 0.0471732068140278 -47.5315747272135 
! Gamma         48.0747645165655 1463.16426494023 47.343968799923  1458.44307550355 
! Port Impedance         50               0                50               0                
31                             0.0342698155869342 -30.2062208061448 0.892185616076179 -173.414389946178 0.892185616076179 -173.414389946178 0.0309545439427869 -33.9546946100477 
! Gamma         49.4887518278652 1511.73572048306 48.738524372797  1506.86880190598 
! Port Impedance         50               0                50               0                
32                             0.0269736214949545 1.39435616115728 0.88954848277408 -179.085526768603 0.889548482774081 -179.085526768603 0.0230679516017127 2.41881998101942 
! Gamma         50.8968000592761 1560.30737421018 50.1273650003079 1555.29506986785 
! Port Impedance         50               0                50               0                
33                             0.0335066921987054 33.7087096060982 0.88656473873208 175.243289995885 0.886564738732079 175.243289995885 0.0307973084386298 38.7337624207681 
! Gamma         52.2991222768788 1608.8801076988  51.5107024111288 1603.72273463202 
! Port Impedance         50               0                50               0                
34                             0.0482358285170751 48.038257983984  0.883243420321959 169.576551156157 0.883243420321959 169.576551156157 0.0466230073993012 52.2940435271944 
! Gamma         53.6959506723192 1657.45474395332 52.8887661279081 1652.1525947833  
! Port Impedance         50               0                50               0                
35                             0.065373402411292 52.4159832033837 0.879607565851252 163.918557286257 0.879607565851252 163.918557286257 0.0643551917349712 55.6766186709969 
! Gamma         55.0875306961204 1706.03205161244 54.2617978473127 1700.58539645644 
! Port Impedance         50               0                50               0                
36                             0.0828781642341574 52.5661220483659 0.875692850621814 158.27324273002  0.875692850621815 158.27324273002  0.0822009955915002 55.1448180494454 
! Gamma         56.4741161671431 1754.61274920378 55.6300467739476 1749.0218374558  
! Port Impedance         50               0                50               0                
37                             0.099966842088925 50.7138643189577 0.87154565505526 152.644021048479 0.87154565505526 152.644021048479 0.0995044133782079 52.8325456763369 
! Gamma         57.8559652398972 1803.19750931757 56.9937657852584 1797.46257141359 
! Port Impedance         50               0                50               0                
38                             0.116237465711001 47.7953846551013 0.867220712849954 147.033658965012 0.867220712849954 147.033658965012 0.115920774102668 49.59207738039   
! Gamma         59.2333371253065 1851.78696268408 58.3532083116582 1845.90821172212 
! Port Impedance         50               0                50               0                
39                             0.131433948296822 44.2583632282789 0.862778506079076 141.444183507307 0.862778506079076 141.444183507307 0.13122225001182 45.8213715243749 
! Gamma         60.6064894420088 1900.3817020319  59.7086258384667 1894.35933535226 
! Port Impedance         50               0                50               0                
40                             0.145372041076694 40.3408969966563 0.858282574994649 135.876824553237 0.858282574994649 135.876824553237 0.14523999433858 41.7295475516012 
! Gamma         61.9756761289105 1948.98228578298 61.0602659324419 1942.81648641914 
! Port Impedance         50               0                50               0                
41                             0.157911541903371 36.1805157524511 0.853796894416207 130.331992621473 0.853796894416208 130.331992621473 0.157842966352471 37.4366576590383 
! Gamma         63.3411458061484 1997.58924149606 62.4083707125226 1991.28017954166 
! Port Impedance         50               0                50               0                
42                             0.168943957378574 31.8619209109234 0.84938344059559 124.809289769534 0.84938344059559 124.809289769534 0.168928549956812 33.016446862661  
! Gamma         64.7031405432662 2046.20306910196 63.7531756974608 2039.75090299461 
! Port Impedance         50               0                50               0                
43                             0.178385995015113 27.4400013838239 0.845100038084347 119.307550003309 0.845100038084346 119.307550003309 0.178417484421304 28.5167108526731 
! Gamma         66.0618949466637 2094.82424387819 65.0949089709    2088.22912158619 
! Port Impedance         50               0                50               0                
44                             0.186175497958166 22.9518695538591 0.840998540870083 113.824904726639 0.840998540870083 113.824904726639 0.186250553506126 23.9698682619792 
! Gamma         67.4176355243131 2143.45321921985 66.4337905980217 2136.71527934772 
! Port Impedance         50               0                50               0                
45                             0.192268540253135 18.4236230558616 0.837123370506688 108.358868393557 0.837123370506688 108.358868393557 0.192386103844811 19.3988870063458 
! Gamma         68.7705802740999 2192.09042918855 67.770032265332  2185.20980200163 
! Port Impedance         50               0                50               0                
46                             0.196637188348689 13.874410734967  0.833510408973266 102.906439616586 0.833510408973266 102.906439616586 0.19679805973787 14.8208590643595 
! Gamma         70.1209384545378 2240.73629084091 69.1038370896808 2233.71309921267 
! Port Impedance         50               0                50               0                
47                             0.1992677475046  9.31905729038913 0.830186227095496 97.4642133398609 0.830186227095497 97.4642133398609 0.199474332371871 10.2493319377286 
! Gamma         71.4689105144988 2289.39120635389 70.4353995746146 2282.22556665322 
! Port Impedance         50               0                50               0                
48                             0.200159437623087 4.76990146498449 0.827167620363969 92.0285002293408 0.827167620363969 92.0285002293408 0.200415609881635 5.69597401744889 
! Gamma         72.8146881312405 2338.05556500632 71.764905672581  2330.74758790712 
! Port Impedance         50               0                50               0                
49                             0.199323489200136 0.238217774985067 0.824461422056761 86.5954499717752 0.824461422056761 86.5954499717752 0.199634543078791 1.1719022115994  
! Gamma         74.1584543560774 2386.72974494286 73.0925329483449 2379.27953617137 
! Port Impedance         50               0                50               0                
50                             0.196782662765532 -4.2645443342837 0.822064566837852 81.1611756732418 0.822064566837852 81.1611756732418 0.197155346027433 -3.31111606655406 
! Gamma         75.5003838261041 2435.41411480422 74.4184508013245 2427.82177585136 
! Port Impedance         50               0                50               0                
51                             0.192571193889144 -8.72552770279467 0.819964384733266 75.7218768867188 0.819964384733266 75.7218768867188 0.193013826143956 -7.73942007603441 
! Gamma         76.840643041308  2484.10903522439 75.7428207507919 2476.37466399811 
! Port Impedance         50               0                50               0                
52                             0.186735162763776 -13.1290719732369 0.818139113338148 70.273958970101  0.818139113338148 70.273958970101  0.187257855680862 -12.0960042197391 
! Gamma         78.1793906787222 2532.81486018133 77.0657967575224 2524.93855159486 
! Port Impedance         50               0                50               0                
53                             0.17933328997973 -17.4549476800355 0.81655862352546 64.8141464702835 0.81655862352546 64.8141464702835 0.179948302499306 -16.3586442022786 
! Gamma         79.5167779444058 2581.53193824034 78.3875255714959 2573.51378478722 
! Port Impedance         50               0                50               0                
54                             0.170438178893231 -21.6759135983374 0.815185358991829 59.3395880658597 0.81518535899183 59.3395880658597 0.171160464527409 -20.4972815570328 
! Gamma         80.852948943214  2630.26061368347 79.7081471060107 2622.10070596511 
! Port Impedance         50               0                50               0                
55                             0.160138077060142 -25.7540914647346 0.813975491310422 53.8479503415094 0.813975491310422 53.8479503415094 0.160986118798737 -24.4701407971696 
! Gamma         82.1880410638967 2679.00122756194 81.0277948196249 2670.69965477437 
