! Touchstone file exported from HFSS 2024.2.0
!        File:           C:/Users/vaintrug/Documents/Ansoft_Workspace/Comparaison_Calculs_HFSS/1_VarPort.aedt
!        Generated:      03:22:16 PM Jan 21, 2025
!        Design:         1_NoDeembed_FacePortFree
!        Project:        1_VarPort
!        Setup:          Setup1
!        Solution:       Sweep
!
! Variables:
!        $Lenght = 1500um
!        $PortSize = 130um
!        Gap = 30um
!        Th = 2um
!        X_centralStrip = 20um
!        X_masse = 200um
!        Y_Sub = 1.5mm
!        Z_Box = 400um
!        Z_Sub = 200um
!
# GHz S MA R 50.000000
! Terminal data exported
! Port[1] = 1
! Port[2] = 2
1                              0.0208353257798948 62.6212934702748 0.989070008200239 -4.43387608023484 0.989070008200238 -4.43387608023484 0.020835642284888 62.6234692268728 
! Gamma         5.76530516121422 49.8800472719599 5.80142210375396 49.9466558557977 
! Port Impedance         50               0                50               0                
2                              0.0372048641167713 69.5628094122175 0.986527015050335 -8.7655566348128 0.986527015050335 -8.76555663481281 0.0372036783592001 69.5687058731772 
! Gamma         7.48114137024121 98.4606492484835 7.52076147100108 98.5743091290957 
! Port Impedance         50               0                50               0                
3                              0.0539304299150398 69.9192681172563 0.98403269132401 -13.1010686306305 0.984032691324009 -13.1010686306305 0.0539274668466148 69.9309104459668 
! Gamma         8.86556374490149 147.102932791683 8.90553532421192 147.270012045399 
! Port Impedance         50               0                50               0                
4                              0.0705247445680668 68.0777772398266 0.981286654367201 -17.4346806795275 0.981286654367201 -17.4346806795275 0.0705203835835372 68.095378878871  
! Gamma         10.1791177070059 195.810140134125 10.219820334959  196.032495220779 
! Port Impedance         50               0                50               0                
5                              0.0867265363374965 65.2720552545812 0.978244653239449 -21.7607975859401 0.97824465323945 -21.7607975859401 0.0867212036715175 65.2956072917681 
! Gamma         11.4873280804847 244.545373730477 11.5292104621985 244.823693080257 
! Port Impedance         50               0                50               0                
6                              0.102368349679375 61.973834271756  0.974920669275938 -26.075493436584 0.974920669275939 -26.075493436584 0.102362441158296 62.0033607460985 
! Gamma         12.8091325404583 293.287503758579 12.8525705810475 293.622072192225 
! Port Impedance         50               0                50               0                
7                              0.117325248981731 58.4002199522577 0.97134879699491 -30.3758753867256 0.97134879699491 -30.3758753867256 0.117319129569519 58.4358087730095 
! Gamma         14.1501878603655 342.024578463029 14.1954800671715 342.41549354879  
! Port Impedance         50               0                50               0                
8                              0.131496973168712 54.6647131698626 0.967572343409263 -34.6597959147576 0.967572343409263 -34.6597959147576 0.131490988067943 54.7065136191408 
! Gamma         15.5114025547957 390.749349590938 15.5587781934122 391.196614052628 
! Port Impedance         50               0                50               0                
9                              0.144800889676202 50.8323291700425 0.963639192617139 -38.9257308088482 0.963639192617138 -38.9257308088481 0.144795376382607 50.8805465563807 
! Gamma         16.8916807665598 439.457209173871 16.9413121567342 439.960777674199 
! Port Impedance         50               0                50               0                
10                             0.157168670371758 46.9428679384983 0.959599087414738 -43.172716173797 0.959599087414737 -43.172716173797 0.157163969970449 46.9977601426488 
! Gamma         18.2890056261062 488.145206476055 18.3410199808886 488.705010299599 
! Port Impedance         50               0                50               0                
11                             0.168544330778017 43.0218833277354 0.955501700655446 -47.4003034635889 0.955501700655446 -47.4003034635889 0.168540798361521 43.083759579436  
! Gamma         19.700947693471  536.811531877638 19.7554367682847 537.427492497567 
! Port Impedance         50               0                50               0                
12                             0.178882785864075 39.0863266514072 0.951395155226495 -51.6085175651866 0.951395155226495 -51.6085175651866 0.178880800170778 39.1555481385915 
! Gamma         21.124937916433  585.455213384011 21.1819654341683 586.127250060923 
! Port Impedance         50               0                50               0                
13                             0.188148612224275 35.1476692240962 0.947324871787853 -55.7978130958029 0.947324871787853 -55.7978130958029 0.18814858458308 35.2246512833357 
! Gamma         22.5584279828373 634.075916735486 22.6180352839692 634.803950854954 
! Port Impedance         50               0                50               0                
14                             0.196314911923569 31.2137423246562 0.94333268801862 -59.9690280959035 0.94333268801862 -59.9690280959035 0.196317294555132 31.2989580004711 
! Gamma         23.9989888948549 682.673800499976 24.0611992557337 683.457758343896 
! Port Impedance         50               0                50               0                
15                             0.203362253987348 27.2898844626812 0.93945621101803 -64.1233358183676 0.93945621101803 -64.1233358183676 0.203367547719292 27.383869473298  
! Gamma         25.4443713483851 731.249403453015 25.5091934160335 732.089217822526 
! Port Impedance         50               0                50               0                
16                             0.209277699750409 23.3796953524072 0.935728368683082 -68.2621957194155 0.935728368683081 -68.2621957194155 0.209286461215687 23.4830545006701 
! Gamma         26.892540559165  779.803553142372 26.9599711301195 780.699164370407 
! Port Impedance         50               0                50               0                
17                             0.214053926668491 19.4855569461747 0.932177127223232 -72.3873047194001 0.932177127223233 -72.3873047194002 0.214066775102349 19.5989721876871 
! Gamma         28.3416930568003 828.337290149079 28.4117193961175 829.288646733375 
! Port Impedance         50               0                50               0                
18                             0.217688464521668 15.6090118842719 0.928825343763462 -76.5005495698861 0.928825343763462 -76.5005495698861 0.21770608831484 15.7332523068086 
! Gamma         29.790260579007  876.851804950342 29.8628623667288 877.85886386788  
! Port Impedance         50               0                50               0                
19                             0.220183054109199 11.7510527731289 0.925690725927802 -80.6039608967173 0.925690725927801 -80.6039608967173 0.220206217336505 11.8869868813236 
! Gamma         31.2369047251372 925.348385592831 31.3120557449575 926.411112390708 
! Port Impedance         50               0                50               0                
20                             0.221543133751483 7.91235567003369 0.922785874265891 -84.6996692328901 0.922785874265892 -84.6996692328901 0.221572682965182 8.0609665045839  
! Gamma         32.6805052863499 973.828374756928 32.7581748662989 974.946743463438 
! Port Impedance         50               0                50               0                
21                             0.221777454587549 4.09348006084479 0.920118387918924 -88.7898631790413 0.920118387918924 -88.7898631790413 0.221814326241269 4.25588382090615 
! Gamma         34.1201443891224 1022.29313511262 34.2002986565453 1023.46712806298 
! Port Impedance         50               0                50               0                
22                             0.2208978220133  0.295051575414516 0.91769101860283 -92.8767496890602 0.91769101860283 -92.8767496890602 0.220943050996743 0.472520687788164 
! Gamma         35.555088239651  1070.74402197814 35.6376911766727 1071.97362949971 
! Port Impedance         50               0                50               0                
23                             0.21891895807405 -3.48205917585508 0.915501862416677 -96.962516401699 0.915501862416677 -96.962516401699 0.218973687977582 -3.28806732292377 
! Gamma         36.9847677117684 1119.18236223201 37.0697820828073 1120.4675822674  
! Port Impedance         50               0                50               0                
24                             0.215858477268287 -7.23654901052208 0.913544583111149 -101.049295932725 0.913544583111149 -101.049295932725 0.215923973201463 -7.02435598238159 
! Gamma         38.4087588298725 1167.60943862038 38.4961469315095 1168.95027631356 
! Port Impedance         50               0                50               0                
25                             0.211736967124938 -10.9664719454858 0.911808663857696 -105.139132043675 0.911808663857697 -105.139132043675 0.211814632202774 -10.7341325372582 
! Gamma         39.8267637947207 1216.02647855895 39.9164881155798 1217.42294582281 
! Port Impedance         50               0                50               0                
26                             0.206578163823617 -14.6689891369004 0.910279687431802 -109.233947670001 0.910279687431803 -109.233947670001 0.206669560860961 -14.4142328296583 
! Gamma         41.2385930677882 1264.43464670722 41.3306167962145 1265.88676172862 
! Port Impedance         50               0                50               0                
27                             0.20040921304809 -18.3400555750004 0.908939646793873 -113.335514856316 0.908939646793873 -113.335514856316 0.200516093636079 -18.0602107058079 
! Gamma         42.6441487866705 1312.83504049143 42.7384362453766 1314.3428272881  
! Port Impedance         50               0                50               0                
28                             0.193261006785437 -21.9740095542365 0.907767289440321 -117.445426746999 0.907767289440321 -117.445426746999 0.193385350900002 -21.6659038033961 
! Gamma         44.0434097157566 1361.22868807196 44.1399266936455 1362.79217602557 
! Port Impedance         50               0                50               0                
29                             0.185168589062653 -25.5630131526053 0.906738499460641 -121.565071871559 0.906738499460642 -121.565071871559 0.185312659855823 -25.2228410534441 
! Gamma         45.4364177592704 1409.61654820713 45.5351317610203 1411.23577161511 
! Port Impedance         50               0                50               0                
30                             0.176171628439555 -29.0962617767033 0.905826721048185 -125.695611064211 0.905826721048185 -125.695611064211 0.176338049252297 -28.7194055207122 
! Gamma         46.8232660528221 1457.99951145356 46.9241464873374 1459.67450910852 
! Port Impedance         50               0                50               0                
31                             0.16631496478551 -32.558828440416 0.905003426251372 -129.837957451968 0.905003426251372 -129.837957451968 0.166506829303134 -32.1396112795298 
! Gamma         48.2040885473096 1506.37840249119 48.3071068614762 1508.10921726716 
! Port Impedance         50               0                50               0                
32                             0.155649257127075 -35.92991456075  0.904238627984767 -133.992760009919 0.904238627984767 -133.992760009919 0.155870290121149 -35.4612549916412 
! Gamma         49.5790510226469 1554.75398310039 49.6841807738212 1556.54066161446 
! Port Impedance         50               0                50               0                
33                             0.144231796464914 -39.1801043843261 0.903501436921902 -138.160391236951 0.903501436921903 -138.160391236951 0.144486593829327 -38.6530214056525 
! Gamma         50.948343375973  1603.12695569844 51.0555602742834 1604.96954793474 
! Port Impedance         50               0                50               0                
34                             0.13212762190771 -42.2668808259448 0.902760657862354 -142.340939519216 0.902760657862354 -142.340939519216 0.13242201896225 -41.6697713628293 
! Gamma         52.3121730973588 1651.49796712213 52.4214550075926 1653.39652613103 
! Port Impedance         50               0                50               0                
35                             0.119411233056843 -45.1269667024537 0.901985417746207 -146.534206720283 0.901985417746208 -146.534206720283 0.119752887959397 -44.4445296868448 
! Gamma         53.6707597756271 1699.8676125322  53.7820867021094 1701.82219415018 
! Port Impedance         50               0                50               0                
36                             0.106169531911728 -47.6625518840377 0.901145813892048 -150.739711470303 0.901145813892048 -150.739711470303 0.106568884984896 -46.8741647221308 
! Gamma         55.0243305408077 1748.23643937963 55.1376845751937 1750.24710197565 
! Port Impedance         50               0                50               0                
37                             0.0925074335926668 -49.7149823886373 0.900213567525217 -154.956698507531 0.900213567525217 -154.956698507531 0.0929793541013123 -48.7922663784175 
! Gamma         56.373116297228  1796.60495126871 56.4884815646714 1798.67175550551 
! Port Impedance         50               0                50               0                
38                             0.0785596699385786 -51.0107760286565 0.899162664611032 -159.184154261686 0.899162664611032 -159.184154261686 0.0791264188960174 -49.9142025985229 
! Gamma         57.7173486668393 1844.97361170766 57.8347112496812 1847.09662034839 
! Port Impedance         50               0                50               0                
39                             0.0645183001610098 -51.0412326966432 0.897969963705292 -163.420828664516 0.897969963705293 -163.420828664516 0.065215092275487 -49.7170269646545 
! Gamma         59.0572575201396 1893.34284767094 59.1766053787814 1895.52212539847 
! Port Impedance         50               0                50               0                
40                             0.050704815804033 -48.7688883634364 0.896615749324647 -167.66526293823 0.896615749324647 -167.66526293823 0.0515902718511313 -47.1566529612786 
! Gamma         60.3930690250744 1941.71305298432 60.5143919103429 1943.94866624164 
! Port Impedance         50               0                50               0                
41                             0.0377852162126368 -41.8727481338327 0.895084209458391 -171.915822858023 0.895084209458392 -171.915822858023 0.0389565018058896 -39.9895632199819 
! Gamma         61.7250041316316 1990.0845914574  61.8482934911042 1992.3766083276  
! Port Impedance         50               0                50               0                
42                             0.0274514243909724 -25.2775091904601 0.893363817433182 -176.170736740935 0.893363817433182 -176.170736740935 0.0290155481688462 -23.6995968049021 
! Gamma         63.0532774088344 2038.45779983102 63.1785262981244 2040.80628989625 
! Port Impedance         50               0                50               0                
43                             0.0236313703303503 5.00617947896718 0.891447601394102 179.571862826324 0.891447601394101 179.571862826324 0.0253839633192113 4.50027763929253 
! Gamma         64.3780962020205 2086.83299046934 64.5052991910988 2089.23802473382 
! Port Impedance         50               0                50               0                
44                             0.0290014314536301 33.0675255310222 0.889333289056287 175.313894694096 0.889333289056287 175.313894694096 0.0303934706266594 30.9313730508475 
! Gamma         65.6996600335144 2135.21045385057 65.8288131108504 2137.67210463419 
! Port Impedance         50               0                50               0                
45                             0.0398653697907479 47.2183700092575 0.88702332079968 171.057283603309 0.88702332079968 171.057283603309 0.0408407581489596 45.0975261619568 
! Gamma         67.0181602057932 2183.59046082432 67.1492606982643 2186.1088017113  
! Port Impedance         50               0                50               0                
46                             0.0527262720362384 52.9358902954468 0.884524730219027 166.803914774751 0.884524730219027 166.803914774751 0.0534244992244639 51.1664879021118 
! Gamma         68.3337795926161 2231.97326469849 68.4668260723035 2234.54837045998 
! Port Impedance         50               0                50               0                
47                             0.0661873132604051 54.6600570100497 0.88184889742964 162.555590011664 0.88184889742964 162.555590011664 0.0667064451168853 53.1998754949054 
! Gamma         69.6466925496106 2280.35910310501 69.7816847557816 2282.99104965871 
! Port Impedance         50               0                50               0                
48                             0.0796851875527672 54.3616035679267 0.879011186245739 158.313986628338 0.87901118624574 158.313986628338 0.0800824738353363 53.1374953759869 
! Gamma         70.95706494772   2328.74819969629 71.09400370206   2331.43706407128 
! Port Impedance         50               0                50               0                
49                             0.0929394432722085 52.935639724093  0.876030481343719 154.080620367079 0.876030481343719 154.080620367079 0.0932494819511504 51.8914868621672 
! Gamma         72.2650542846228 2377.14076570177 72.4039414260026 2379.88662598848 
! Port Impedance         50               0                50               0                
50                             0.105779944377657 50.8297705932403 0.872928645321838 149.856813273558 0.872928645321837 149.856813273558 0.106025065425995 49.9263195394679 
! Gamma         73.5708098711605 2425.53700128691 73.7116481791377 2428.33993662772 
! Port Impedance         50               0                50               0                
51                             0.118087586492372 48.2888400168515 0.86972991793278 145.643667262587 0.86972991793278 145.643667262587 0.11828318541223 47.4987440923819 
! Gamma         74.874473067289  2473.93709681167 75.017266198265  2476.79718737275 
! Port Impedance         50               0                50               0                
52                             0.129771093441104 45.4570363659924 0.866460280630607 141.442043855834 0.866460280630607 141.442043855834 0.129928455199304 44.7609675710197 
! Gamma         76.1761775541183 2522.34123393256 76.3209299806782 2525.25856090172 
! Port Impedance         50               0                50               0                
53                             0.140756822310609 42.4244774225234 0.863146808992249 137.252550311218 0.863146808992249 137.252550311218 0.140884697380631 41.8085563571479 
! Gamma         77.4760496360162 2570.74958662994 77.6227665890536 2573.72423218625 
! Port Impedance         50               0                50               0                
54                             0.150983798979583 39.2502615953059 0.859817033756085 133.075532128131 0.859817033756085 133.075532128131 0.151089330880003 38.7044036504317 
! Gamma         78.7742085604822 2619.16232207282 78.9228959762758 2622.19436939601 
! Port Impedance         50               0                50               0                
55                             0.160401044456521 35.9746927008031 0.856498328455506 128.911071703028 0.856498328455506 128.911071703028 0.160490343195321 35.4915357451474 
! Gamma         80.0707668501404 2667.57960142652 80.221431320798  2670.6691346922  
