! Touchstone file exported from HFSS 2024.2.0
!        File:           C:/Users/vaintrug/Documents/Ansoft_Workspace/Comparaison_Calculs_HFSS/1_VarPort.aedt
!        Generated:      03:22:19 PM Jan 21, 2025
!        Design:         1_NoDeembed_FacePortFree
!        Project:        1_VarPort
!        Setup:          Setup1
!        Solution:       Sweep
!
! Variables:
!        $Lenght = 2000um
!        $PortSize = 260um
!        Gap = 30um
!        Th = 2um
!        X_centralStrip = 20um
!        X_masse = 200um
!        Y_Sub = 2mm
!        Z_Box = 400um
!        Z_Sub = 200um
!
# GHz S MA R 50.000000
! Terminal data exported
! Port[1] = 1
! Port[2] = 2
1                              0.0270695359128826 60.6376552405191 0.985381462312578 -5.89234053370294 0.985381462312577 -5.89234053370294 0.0270733831284019 60.6098468816765 
! Gamma         6.08037884953325 50.2154976659853 6.14587160694102 50.2195227362921 
! Port Impedance         50               0                50               0                
2                              0.0480155685024364 66.4846962241632 0.981884291649496 -11.6493054396457 0.981884291649497 -11.6493054396457 0.048018450905117 66.4260799327124 
! Gamma         7.99764751903714 98.9923940665409 8.0653343670129  98.9049183590027 
! Port Impedance         50               0                50               0                
3                              0.0692398119259336 65.5835488280187 0.978353765604751 -17.4082662485857 0.978353765604751 -17.4082662485857 0.0692395549238938 65.4961076695206 
! Gamma         9.51424775530132 147.714726594273 9.56483581807049 147.575845641499 
! Port Impedance         50               0                50               0                
4                              0.0899682889811857 62.4342630073576 0.974429309221046 -23.1588799957132 0.974429309221046 -23.1588799957132 0.0899628528296739 62.3174910251384 
! Gamma         10.9027642313775 196.49477461082  10.9435273671577 196.315366750452 
! Port Impedance         50               0                50               0                
5                              0.109764178787909 58.3104668998367 0.970092095288292 -28.8921438599655 0.970092095288292 -28.8921438599655 0.109751242537311 58.1636245104654 
! Gamma         12.2631562730516 245.311929883254 12.2989823861731 245.093785777133 
! Port Impedance         50               0                50               0                
6                              0.128334098673564 53.6998858139148 0.965403521601728 -34.6019283226718 0.965403521601728 -34.6019283226718 0.128311252494881 53.5221179765122 
! Gamma         13.6291767862908 294.143446676092 13.6626833293999 293.886340125089 
! Port Impedance         50               0                50               0                
7                              0.145457813666175 48.827343426253  0.960453256432005 -40.2841444564337 0.960453256432006 -40.2841444564337 0.145422647496377 48.6176358308556 
! Gamma         15.012471749343  342.974297851422 15.0451031642272 342.677595144225 
! Port Impedance         50               0                50               0                
8                              0.160963924356697 43.8103833706536 0.955342068071279 -45.9363790787593 0.955342068071279 -45.9363790787593 0.16091405389555 43.5675255363015 
! Gamma         16.4164069757716 391.794900446417 16.4490041491058 391.457933047513 
! Port Impedance         50               0                50               0                
9                              0.174719465979972 38.7160525015367 0.950172905173554 -51.5577082960835 0.950172905173553 -51.5577082960835 0.174652532310317 38.4386068114561 
! Gamma         17.840858268115  440.599073470887 17.8739279105129 440.221221126751 
! Port Impedance         50               0                50               0                
10                             0.186623904604571 33.5849304240461 0.945044920935517 -57.1485502404845 0.945044920935517 -57.1485502404845 0.186537561626499 33.271199897154  
! Gamma         19.2841136996567 489.382836083537 19.3179605577892 488.963539931447 
! Port Impedance         50               0                50               0                
11                             0.196604602941888 28.4425460041585 0.940049119850769 -62.7105118481481 0.940049119850768 -62.7105118481481 0.196496497864481 28.0905363501967 
! Gamma         20.7437342677241 538.143715644457 20.7785308010118 537.682475830705 
! Port Impedance         50               0                50               0                
12                             0.204612883748055 23.3053564964618 0.935265209535989 -68.2462198464086 0.93526520953599 -68.2462198464086 0.204480632474456 22.9127290946854 
! Gamma         22.2169902754076 586.880327665631 22.2528167615982 586.376698723249 
! Port Impedance         50               0                50               0                
13                             0.210620505590925 18.184170029113  0.930759452206217 -73.7591385364638 0.930759452206217 -73.7591385364639 0.210461663290586 17.7481825550049 
! Gamma         23.701103091215  635.59210066928  23.7379730894658 635.045687430513 
! Port Impedance         50               0                50               0                
14                             0.214616585985061 13.0862843777628 0.926583353907698 -79.2533805816297 0.926583353907698 -79.2533805816297 0.214428612080078 12.6037148741074 
! Gamma         25.1933868199505 684.27908176838  25.2312648704741 683.689535982195 
! Port Impedance         50               0                50               0                
15                             0.216605056740075 8.01695361276614 0.922773039325185 -84.7335169776054 0.922773039325185 -84.7335169776054 0.216385272513581 7.4840025084915  
! Gamma         26.6913325839616 732.94179016213  26.7301474342521 732.308807485482 
! Port Impedance         50               0                50               0                
16                             0.216602721660749 2.98050328554988 0.919349172301556 -90.2043911740273 0.919349172301556 -90.2043911740273 0.216348257363086 2.39266545922362 
! Gamma         28.1926568705191 781.581101762967 28.2323118638949 780.904418701225 
! Port Impedance         50               0                50               0                
17                             0.214637953096136 -2.01871729407019 0.916317303273354 -95.6709408105108 0.916317303273355 -95.6709408105108 0.214345679614962 -2.66682161097322 
! Gamma         29.6953259594071 830.198155723229 29.735707368867  829.47754657946  
! Port Impedance         50               0                50               0                
18                             0.210750028568903 -6.97541286921581 0.913668552473271 -101.138029279256 0.91366855247327 -101.138029279256 0.210416466000331 -7.69026494553137 
! Gamma         31.1975638159803 878.794278103797 31.2385476163144 878.029551636188 
! Port Impedance         50               0                50               0                
19                             0.204989078720804 -11.8823295469916 0.911380567594887 -106.610288590365 0.911380567594887 -106.610288590365 0.204610269955468 -12.6718216138797 
! Gamma         32.6978485355534 927.370919058495 32.7393058486946 926.561915114622 
! Port Impedance         50               0                50               0                
20                             0.197416597733759 -16.7290078019727 0.909418722075188 -112.091974668385 0.909418722075189 -112.091974668385 0.196987928364936 -17.6028733298036 
! Gamma         34.1949009541832 975.92960194639  34.2367023811354 975.076187951858 
! Port Impedance         50               0                50               0                
21                             0.188106459536631 -21.500090801048 0.907737542114456 -117.586836372288 0.907737542114455 -117.586836372288 0.187622393952966 -22.4705158745319 
! Gamma         35.687668171944  1024.47188224625 35.7296871335032 1023.5739497533  
! Port Impedance         50               0                50               0                
22                             0.177146395215812 -26.1728383665949 0.906282364500067 -123.09799994669 0.906282364500067 -123.09799994669 0.176600078805424 -27.2553518945099 
! Gamma         37.1753040221209 1072.99931520017 37.2174192797081 1072.05677652368 
! Port Impedance         50               0                50               0                
23                             0.164639936982948 -30.7132153658461 0.904991231667606 -128.627871215887 0.904991231667606 -128.627871215887 0.164022578002767 -31.9280215559108 
! Gamma         38.6571480609314 1121.51343074907 38.6992455044082 1120.52621576513 
! Port Impedance         50               0                50               0                
24                             0.150708962423308 -35.0693377724493 0.903797024717694 -134.178058441465 0.903797024717694 -134.178058441465 0.150008837508852 -36.4433727801823 
! Gamma         40.132704189368  1170.01571475851 40.1746780445324 1168.98376794604 
! Port Impedance         50               0                50               0                
25                             0.135497281298458 -39.1597742477408 0.902629819598271 -139.74931920506 0.902629819598271 -139.74931920506 0.134698067813468 -40.7299879438081 
! Gamma         41.6016197745338 1218.50759545853 41.6433732953481 1217.43087315891 
! Port Impedance         50               0                50               0                
26                             0.119176464645337 -42.8511754683099 0.901419427877519 -145.34153479727 0.90141942787752 -145.34153479727 0.118254299740655 -44.6699455704838 
! Gamma         43.0636657876336 1266.99043418935 43.1051115739656 1265.86890216069 
! Port Impedance         50               0                50               0                
27                             0.101957111286515 -45.911954009268 0.900098054337206 -150.953715269799 0.900098054337205 -150.953715269799 0.100875076664453 -48.0562383862634 
! Gamma         44.518718357046  1315.46551964919 44.5597783497167 1314.29915091863 
! Port Impedance         50               0                50               0                
28                             0.0841145986503367 -47.9068186151622 0.898602973090028 -156.584037432693 0.898602973090028 -156.584037432693 0.0828115909676752 -50.4933303191097 
! Gamma         45.9667419198371 1363.93406496517 46.0073471681959 1362.72283792486 
! Port Impedance         50               0                50               0                
29                             0.0660580853761903 -47.927924348567 0.896879097096754 -162.229916666041 0.896879097096755 -162.229916666041 0.064424540862713 -51.1323827970196 
! Gamma         47.4077740809427 1412.39720692578 47.4478643267464 1411.14110369338 
! Port Impedance         50               0                50               0                
30                             0.0485495310571362 -43.8249976179456 0.894881298314441 -167.888111524029 0.894881298314441 -167.888111524029 0.0463730602216915 -47.8452862387818 
! Gamma         48.8419121591969 1460.85600689094 48.8814353151389 1459.55501194129 
! Port Impedance         50               0                50               0                
31                             0.0335173745413075 -30.0502324965771 0.892576331880925 -173.554857919563 0.892576331880923 -173.554857919563 0.0304182648808288 -34.3723688451873 
! Gamma         50.2693014053431 1509.31145294634 50.3082129424166 1507.96555195802 
! Port Impedance         50               0                50               0                
32                             0.0264361173309807 1.72581073193945 0.889944230792631 -179.226027434738 0.88994423079263 -179.226027434738 0.0225983555149854 1.9490851315624  
! Gamma         51.6901247437458 1557.76446297255 51.7283870466813 1556.3736418546  
! Port Impedance         50               0                50               0                
33                             0.0329550355430308 33.9933970569226 0.886979067814965 175.102697694778 0.886979067814965 175.102697694778 0.0301470512882465 38.4269950254114 
! Gamma         53.1045939735477 1606.21588826788 53.1421756735573 1604.78013240853 
! Port Impedance         50               0                50               0                
34                             0.0474779515128233 48.2329087776278 0.883689026126223 169.435641854405 0.883689026126223 169.435641854405 0.0456995161849917 52.0332191401143 
! Gamma         54.5129422566465 1654.66651762897 54.5498175727168 1653.18581126013 
! Port Impedance         50               0                50               0                
35                             0.064350816850423 52.5741384565903 0.8800957739489  163.776955232375 0.8800957739489  163.776955232375 0.0631402282108334 55.4063834070296 
! Gamma         55.9154177867055 1703.11708154566 55.9515658856203 1701.59140727199 
! Port Impedance         50               0                50               0                
36                             0.0815876716246098 52.7150971707889 0.876233193764567 158.130444407973 0.876233193764567 158.130444407973 0.0807022183781627 54.8510464717849 
! Gamma         57.3122784883141 1751.56825652928 57.3476828757023 1749.99759496093 
! Port Impedance         50               0                50               0                
37                             0.0984256133043026 50.8666857224569 0.872145565911561 152.499422860718 0.87214556591156 152.499422860718 0.0977403746683314 52.5097325719081 
! Gamma         58.7037876304323 1800.02066935869 58.7384355766414 1798.40499884148 
! Port Impedance         50               0                50               0                
38                             0.114472135961522 47.9593781952301 0.867885342915422 146.886588189317 0.867885342915422 146.886588189317 0.113915583354664 49.2365938989206 
! Gamma         60.0902102284106 1848.47490122976 60.1240922406289 1846.81419766052 
! Port Impedance         50               0                50               0                
39                             0.129476401234132 44.4385006103426 0.863510670736357 141.293930686579 0.863510670736357 141.293930686579 0.129003104450228 45.4299060235897 
! Gamma         61.4718101354155 1896.93149173477 61.5049194683508 1895.22572845422 
! Port Impedance         50               0                50               0                
40                             0.143257299855945 40.5411922468871 0.859082815262064 135.722675556578 0.859082815262064 135.722675556578 0.142835706973227 41.2986754747267 
! Gamma         62.8488477136623 1945.39094263499 62.8811799285478 1943.64009034992 
! Port Impedance         50               0                50               0                
41                             0.155676480657333 36.4046943363755 0.8546636388061  130.173258842755 0.8546636388061  130.173258842755 0.155282929499805 36.9626991347071 
! Gamma         64.2215780095158 1993.85372139259 64.2531305764283 1992.05774817021 
! Port Impedance         50               0                50               0                
42                             0.166626416366223 32.1137941634861 0.850313246179086 124.645335236323 0.850313246179087 124.645335236323 0.166241942809825 32.4954009485954 
! Gamma         65.5902493488715 2042.32026449453 65.6210212903169 2040.47913577571 
! Port Impedance         50               0                50               0                
43                             0.176024144841625 27.7237135305796 0.846087888306002 119.13781451589  0.846087888306002 119.13781451589  0.175632648833534 27.9442033062977 
! Gamma         66.9551022880637 2090.79098050502 66.9850938611138 2088.90465915138 
! Port Impedance         50               0                50               0                
44                             0.183807385623227 23.2720897002369 0.842038178481381 113.648922478736 0.842038178481381 113.648922478736 0.18339449935338 23.341089951112  
! Gamma         68.3163688594295 2139.26625289026 68.3455812780345 2137.33469924598 
! Port Impedance         50               0                50               0                
45                             0.189931780846388 18.7857180203208 0.838207646479853 108.176281834625 0.838207646479853 108.176281834625 0.189484116298316 18.7085119502716 
! Gamma         69.6742720620416 2187.7464426093  69.7027072505152 2185.7696145878  
! Port Impedance         50               0                50               0                
46                             0.194368777753781 14.2846200505765 0.834631631741954 102.717008547043 0.834631631741954 102.717008547043 0.193873382484931 14.0629341815686 
! Gamma         71.0290255553833 2236.23189049    71.0566859361939 2234.20974366873 
! Port Impedance         50               0                50               0                
47                             0.197103976991021 9.78468645000398 0.831336500186251 97.2678194125479 0.831336500186251 97.2678194125479 0.196547899793496 9.41713026017661 
! Gamma         72.3808335127599 2284.72291938475 72.4077218231391 2282.65540709236 
! Port Impedance         50               0                50               0                
48                             0.198135895296754 5.29954869849514 0.828339159989922 91.8251471389912 0.828339159989922 91.8251471389912 0.197505799068363 4.78180101237274 
! Gamma         73.7298906129063 2333.21983612013 73.7560097442569 2331.10690956014 
! Port Impedance         50               0                50               0                
49                             0.197475138804344 0.842051755085638 0.825646849045581 86.3852596817553 0.825646849045582 86.3852596817553 0.196756914429094 0.16684105584829 
! Gamma         75.0763821328964 2381.72293328023 75.1017349974339 2379.56454161786 
! Port Impedance         50               0                50               0                
50                             0.195143997778124 -3.57443390373638 0.823257169320807 80.9443810501511 0.823257169320806 80.9443810501512 0.194322337822177 -4.41754023008103 
! Gamma         76.4204841263491 2430.23249081364 76.4450735407241 2428.02858129441 
! Port Impedance         50               0                50               0                
51                             0.191176476263877 -7.93467733151409 0.821158349131707 75.4988111251271 0.821158349131707 75.4988111251271 0.19023436369339 -8.9596855326203 
! Gamma         77.7623636632419 2478.74877746896 77.7861922542091 2476.49929552273 
! Port Impedance         50               0                50               0                
52                             0.185618772091963 -12.2200492884309 0.819329721566163 70.0450421902684 0.819329721566163 70.0450421902684 0.184536826938612 -13.4451893142362 
! Gamma         79.1021791203878 2527.27205211058 79.1252492466747 2524.97694144156 
! Port Impedance         50               0                50               0                
53                             0.178530233659888 -16.4065583304055 0.817742414077629 64.5798698823568 0.817742414077629 64.5798698823568 0.177285836843815 -17.8552361476197 
! Gamma         80.4400805073294 2575.80256487746 80.4623941908468 2573.4617675788  
! Port Impedance         50               0                50               0                
54                             0.169984852013952 -20.4621335792816 0.816360248988225 59.100496126741  0.816360248988225 59.100496126741  0.168550924213378 -22.1642872769158 
! Gamma         81.7762098158051 2624.34055824061 81.7977686917303 2621.95401487948 
! Port Impedance         50               0                50               0                
55                             0.16007342135619 -24.3426234380324 0.815140855887285 53.6046213809612 0.815140855887286 53.6046213809612 0.158416663971579 -26.336631815056 
! Gamma         83.1107013827867 2672.88626794344 83.1315066567558 2670.45391765268 
