! Touchstone file exported from HFSS 2024.2.0
!        File:           C:/Users/vaintrug/Documents/Ansoft_Workspace/Comparaison_Calculs_HFSS/1_VarPort.aedt
!        Generated:      03:22:18 PM Jan 21, 2025
!        Design:         1_NoDeembed_FacePortFree
!        Project:        1_VarPort
!        Setup:          Setup1
!        Solution:       Sweep
!
! Variables:
!        $Lenght = 1500um
!        $PortSize = 390um
!        Gap = 30um
!        Th = 2um
!        X_centralStrip = 20um
!        X_masse = 200um
!        Y_Sub = 1.5mm
!        Z_Box = 400um
!        Z_Sub = 200um
!
# GHz S MA R 50.000000
! Terminal data exported
! Port[1] = 1
! Port[2] = 2
1                              0.0217991068858968 63.6450334071365 0.989077825004917 -4.43991674777453 0.989077825004917 -4.43991674777453 0.0217987567384419 63.6491386568604 
! Gamma         5.93502873707403 49.992367842972  5.99612438350157 50.2445376513121 
! Port Impedance         50               0                50               0                
2                              0.0391944258755176 70.072615893281  0.986477037549493 -8.77503783838084 0.986477037549492 -8.77503783838084 0.0391993035480565 70.076539305015  
! Gamma         7.70472112511225 98.6412028029    7.8341377278966  99.0559559915408 
! Port Impedance         50               0                50               0                
3                              0.0568969755443592 70.1982568360718 0.983906989248664 -13.113360094645 0.983906989248664 -13.113360094645 0.0569086212908183 70.1970470991089 
! Gamma         9.12586402170775 147.320451521571 9.30903159699581 147.884877773929 
! Port Impedance         50               0                50               0                
4                              0.0744339327081171 68.235348510755  0.9810572715734  -17.4490776017725 0.9810572715734  -17.4490776017725 0.0744521701637534 68.2286256250277 
! Gamma         10.4601421155116 196.064726655375 10.6870805064479 196.768911936323 
! Port Impedance         50               0                50               0                
5                              0.0915404780976862 65.358384702085  0.977884000755797 -21.7762316321913 0.977884000755797 -21.7762316321913 0.0915650433221633 65.3463184599377 
! Gamma         11.7838595541057 244.840981921592 12.0468282994424 245.681486920624 
! Port Impedance         50               0                50               0                
6                              0.108043521505238 62.0161558594763 0.974404613953347 -26.0906041865026 0.974404613953347 -26.0906041865026 0.108074230856464 61.9988469395483 
! Gamma         13.1201966043014 293.626884553748 13.4147478878011 294.602958590259 
! Port Impedance         50               0                50               0                
7                              0.123812797904183 58.4153071054348 0.970657763885452 -30.3890816481942 0.970657763885451 -30.3890816481943 0.123849530188836 58.3927268456276 
! Gamma         14.476268234728  342.409258649876 14.8002283984753 343.520822270317 
! Port Impedance         50               0                50               0                
8                              0.138743536658014 54.6639566123137 0.96669180199361 -34.6693576266077 0.96669180199361 -34.6693576266077 0.138786196081845 54.6359621506349 
! Gamma         15.8534208179415 391.180085167248 16.2059643401776 392.427030249301 
! Port Impedance         50               0                50               0                
9                              0.15274954886938 50.8240825592738 0.962559836024866 -38.9298060655774 0.962559836024866 -38.9298060655775 0.152798030732841 50.7904358851891 
! Gamma         17.2506158773565 439.934328882221 17.6316777628884 441.316321988234 
! Port Impedance         50               0                50               0                
10                             0.165759905483464 46.9336359091088 0.95831679838591 -43.1694147685718 0.958316798385911 -43.1694147685717 0.165814066866065 46.8940173958139 
! Gamma         18.6657499470068 488.668832100184 19.0756755532566 490.18529012776  
! Port Impedance         50               0                50               0                
11                             0.177716912786393 43.0169652598963 0.954017352143408 -47.3877367510191 0.954017352143408 -47.3877367510192 0.177776547834766 42.9709819987763 
! Gamma         20.0962560159455 537.381718016249 20.5355930389763 539.031839009429 
! Port Impedance         50               0                50               0                
12                             0.188574566578811 39.0901836451526 0.949714283004288 -51.5848440081385 0.949714283004288 -51.5848440081385 0.188639385902008 39.0373738681239 
! Gamma         21.5394154824994 586.072038326456 22.0087894238917 587.854846151497 
! Port Impedance         50               0                50               0                
13                             0.198297192112717 35.164141806222  0.945457252696734 -55.7612789085672 0.945457252696734 -55.7612789085672 0.198366805933217 35.1039764252412 
! Gamma         22.992535952745  634.739543162349 23.4925754569978 636.653931852129 
! Port Impedance         50               0                50               0                
14                             0.206858177509884 31.2461841161136 0.941291854181584 -59.9180026141019 0.941291854181584 -59.9180026141019 0.206932082302981 31.1780659840025 
! Gamma         24.4530576490146 683.384516660037 24.9843504059673 685.429289922901 
! Port Impedance         50               0                50               0                
15                             0.21423878637596 27.3412472170018 0.937258926154784 -64.0563414372597 0.937258926154785 -64.0563414372597 0.214316354737236 27.2645084351015 
! Gamma         25.9186171971934 732.007651135191 26.4816850260398 734.181555848882 
! Port Impedance         50               0                50               0                
16                             0.2204270625788  23.4525854177066 0.933394087947419 -68.1779324643214 0.933394087947418 -68.1779324643214 0.220507536025747 23.3664827976772 
! Gamma         27.3870834024001 780.609946337728 27.9823696404158 782.911700260256 
! Port Impedance         50               0                50               0                
17                             0.225416846712252 19.582275024392  0.929727457029902 -72.2846696505948 0.929727457029904 -72.2846696505947 0.225499331078771 19.4859836625825 
! Gamma         28.8565737544254 829.192626902989 29.4844385718268 831.62094119621  
! Port Impedance         50               0                50               0                
18                             0.229206921344471 15.7315833246852 0.926283513364878 -76.3786513195604 0.926283513364878 -76.3786513195604 0.229290384371361 15.6241881079252 
! Gamma         30.3254572363504 877.757074343315 30.9861780929869 880.310671512094 
! Port Impedance         50               0                50               0                
19                             0.231800296706791 11.9012529813871 0.923081078384248 -80.4621296843847 0.923081078384248 -80.4621296843847 0.231883567388193 11.7817377447827 
! Gamma         31.7923475698466 926.304770959135 32.4861228915733 928.982398960295 
! Port Impedance         50               0                50               0                
20                             0.233203642870753 8.09173367579699 0.920133381032795 -84.5374627142799 0.920133381032795 -84.5374627142799 0.233285412057803 7.95896755712394 
! Gamma         33.2560898963308 974.837254302124 33.9830447352399 977.637697277879 
! Port Impedance         50               0                50               0                
21                             0.233426869315072 4.30338237304829 0.917448188668601 -88.6070684548033 0.917448188668601 -88.6070684548033 0.233505691025003 4.15610275606054 
! Gamma         34.7157432673646 1023.35608059501 35.4759360657742 1026.27816690839 
! Port Impedance         50               0                50               0                
22                             0.232482848699218 0.536647982413607 0.915027986107004 -92.6733817636966 0.915027986107003 -92.6733817636966 0.232557141499417 0.37343919617124 
! Gamma         36.170560762096  1071.86279605501 36.9639905903963 1074.90540398529 
! Port Impedance         50               0                50               0                
23                             0.230387278767552 -3.20774644077094 0.912870191294204 -96.7388133325367 0.912870191294204 -96.7388133325367 0.23045532650095 -3.38847978983286 
! Gamma         37.6199685688321 1120.35891494518 38.446582455253  1123.52097650393 
! Port Impedance         50               0                50               0                
24                             0.22715867390541 -6.92861129311463 0.910967400894944 -100.805710852167 0.910967400894944 -100.805710852167 0.227218624846029 -7.12867792746217 
! Gamma         39.0635450640047 1168.8459033359  39.9232451365122 1172.12640651529 
! Port Impedance         50               0                50               0                
25                             0.222818476586337 -10.6240738048934 0.909307663099665 -104.876322196244 0.909307663099666 -104.876322196244 0.222868339875684 -10.845538437361 
! Gamma         40.5010006050081 1217.32516766753 41.3936508491907 1220.72315748224 
! Port Impedance         50               0                50               0                
26                             0.217391277911327 -14.2913196319069 0.907874778311319 -108.952760562315 0.907874778311319 -108.952760562315 0.217428915732165 -14.5365576725698 
! Gamma         41.9321585066594 1265.79804719123 42.8575910342481 1269.31262571598 
! Port Impedance         50               0                50               0                
27                             0.210905136224143 -17.9262686724101 0.906648630864849 -113.036971605353 0.906648630864848 -113.036971605353 0.210928249582449 -18.1980371936089 
! Gamma         43.356937509174  1314.26580962347 44.3149583070695 1317.89613524263 
! Port Impedance         50               0                50               0                
28                             0.203391983521813 -21.5231501939816 0.905605556562285 -117.130702700455 0.905605556562287 -117.130702700455 0.203398088594723 -21.8246812111504 
! Gamma         44.7753359051644 1362.72964927519 45.765729988758  1366.47493538181 
! Port Impedance         50               0                50               0                
29                             0.194888111692258 -25.0739240997457 0.904718751553543 -121.235474598842 0.904718751553544 -121.235474598842 0.194874502281404 -25.4090490011731 
! Gamma         46.1874173555732 1411.19068711632 47.2099533831242 1415.0502003603  
! Port Impedance         50               0                50               0                
30                             0.185434735901179 -28.5674641798054 0.903958727912421 -125.352555857196 0.903958727912422 -125.352555857196 0.185398425250814 -28.9407824944017 
! Gamma         47.593298394821  1459.64997233612 48.6477327161263 1463.62303055163 
! Port Impedance         50               0                50               0                
31                             0.17507864319548 -31.9883655571213 0.903293820144135 -129.482940536444 0.903293820144135 -129.482940536444 0.175016274737667 -32.4054780650838 
! Gamma         48.9931375307537 1508.10848493476 50.079217731784  1512.1944548759  
! Port Impedance         50               0                50               0                
32                             0.163872955559303 -35.3151425514181 0.902690744818056 -133.627329754652 0.902690744818056 -133.627329754652 0.16378066591264 -35.7829797981805 
! Gamma         50.3871258479483 1556.56713909328 51.5045938106321 1560.76543403165 
! Port Impedance         50               0                50               0                
33                             0.151878077973282 -38.5174051322323 0.902115212640391 -137.786117751332 0.90211521264039 -137.786117751332 0.151751284692048 -39.04470061749  
! Gamma         51.7754789786796 1605.0267869956  52.9240735062528 1609.33686426913 
! Port Impedance         50               0                50               0                
34                             0.139162984810782 -41.5512572045168 0.901532588627344 -141.959383137319 0.901532588627343 -141.959383137319 0.138996051812264 -42.1492449688047 
! Gamma         53.1584303138076 1653.48822299109 54.3378893478009 1657.90958152012 
! Port Impedance         50               0                50               0                
35                             0.125807169492858 -44.3514577861371 0.900908591888238 -146.146885989056 0.900908591888238 -146.146885989056 0.125592866208328 -45.0349251849137 
! Gamma         54.5362253071367 1701.95218783168 55.7462877958845 1706.48436569328 
! Port Impedance         50               0                50               0                
36                             0.111903959177513 -46.8173727900215 0.900210022079612 -150.348071366342 0.900210022079612 -150.348071366342 0.111632556607096 -47.6062820833894 
! Gamma         55.9091167500077 1750.41937293211 57.1495241979454 1755.06194497228 
! Port Impedance         50               0                50               0                
37                             0.0975667837240332 -48.786264892911 0.899405495244532 -154.562079696826 0.899405495244533 -154.562079696826 0.0972244794516675 -49.708271519298 
! Gamma         57.2773608994347 1798.89042456802 58.5478586271314 1803.64300010507 
! Port Impedance         50               0                50               0                
38                             0.0829422656879617 -49.9788671402215 0.898466167911573 -158.78776427803 0.898466167911572 -158.78776427803 0.0825083026818865 -51.07309822315  
! Gamma         58.6412143200212 1847.36594791587 59.9415524909327 1852.22816853525 
! Port Impedance         50               0                50               0                
39                             0.0682404638513401 -49.8793078331772 0.89736642540598 -163.023715905757 0.89736642540598 -163.023715905757 0.0676815920738205 -51.2009010753583 
! Gamma         60.0009313736455 1895.84651089296 61.3308657888169 1900.81804836091 
! Port Impedance         50               0                50               0                
40                             0.0538131056851955 -47.4476775911587 0.896084508737276 -167.268294351397 0.896084508737275 -167.268294351397 0.0530727011404319 -49.0654732049206 
! Gamma         61.3567622205715 1944.33264781255 62.7160549473858 1949.41320208802 
! Port Impedance         50               0                50               0                
41                             0.0403815255668334 -40.4073587142619 0.894603054498998 -171.519666110447 0.894603054498998 -171.519666110447 0.039361487484228 -42.3389231531552 
! Gamma         62.7089512966679 1992.82486277806 64.0973711182186 1998.01416015052 
! Port Impedance         50               0                50               0                
42                             0.029725891215758 -23.9923382461485 0.892909524114839 -175.775847541372 0.892909524114839 -175.775847541372 0.0283019114121398 -25.7633295300914 
! Gamma         64.0577361483703 2041.3236328533  65.4750588901796 2046.62142420551 
! Port Impedance         50               0                50               0                
43                             0.0257862314297973 5.13777392003324 0.89099650251501 179.965247768583 0.89099650251501 179.965247768583 0.0241208245359909 5.26507650249239 
! Gamma         65.4033466000632 2089.82941099893 66.8493553299592 2095.23547017206 
! Port Impedance         50               0                50               0                
44                             0.031181264781744 32.3633884608387 0.888861851730584 175.705758797766 0.888861851730584 175.705758797766 0.0298214739900813 34.0773765651806 
! Gamma         66.7460041745216 2138.34262878371 68.2204893151122 2143.85675105502 
! Port Impedance         50               0                50               0                
45                             0.042319963227089 46.5825166609605 0.8865087115713  171.44782560006  0.886508711571301 171.44782560006  0.0413357532132753 48.3024096064744 
! Gamma         68.0859217402771 2186.86369884716 69.5886810882053 2192.48569953119 
! Port Impedance         50               0                50               0                
46                             0.0556284375265706 52.5261896771219 0.883945346973923 167.193538158298 0.883945346973923 167.193538158298 0.0548909727905047 53.9271389377173 
! Gamma         69.4233033216784 2235.39301719297 70.9541420051828 2241.12273033776 
! Port Impedance         50               0                50               0                
47                             0.0696089314625974 54.4428593583561 0.881184849142222 162.944887199445 0.881184849142223 162.944887199445 0.0690266196529022 55.5576188228115 
! Gamma         70.7583440638056 2283.93096524496 72.3170744439147 2289.7682424233  
! Port Impedance         50               0                50               0                
48                             0.0836442844159377 54.2940700627409 0.878244704604357 158.703718485268 0.878244704604358 158.703718485268 0.0831628583558189 55.1855050065312 
! Gamma         72.0912303028048 2332.47791175518 73.6776718278337 2338.42262095512 
! Port Impedance         50               0                50               0                
49                             0.0974262914278224 52.9871017733405 0.875146252209196 154.471691906469 0.875146252209196 154.471691906469 0.0970120429108055 53.7035505181407 
! Gamma         73.4221397338884 2381.03421451649 75.0361187569553 2387.08623911903 
! Port Impedance         50               0                50               0                
50                             0.110769204483868 50.9799305894193 0.871914052417176 150.250246464694 0.871914052417177 150.250246464694 0.110399476574562 51.5549730686656 
! Gamma         74.751241641899  2429.60022193664 76.3925912107669 2435.75945977581 
! Port Impedance         50               0                50               0                
51                             0.123544391283932 48.5244399320506 0.868575195766816 146.040571928401 0.868575195766816 146.040571928401 0.123202722337916 48.9811616854639 
! Gamma         76.078697192534  2478.17627445915 77.7472568172395 2484.44263695905 
! Port Impedance         50               0                50               0                
52                             0.135654472842243 45.7694771683724 0.865158578024212 141.843587646411 0.865158578024212 141.843587646411 0.135328037325641 46.1238523909627 
! Gamma         77.4046597563026 2526.76270587337 79.1002751599274 2533.13611724689 
! Port Impedance         50               0                50               0                
53                             0.147021864917335 42.8082929207428 0.861694168415828 137.659928692027 0.861694168415828 137.659928692027 0.14670005242078 43.0714263222743 
! Gamma         78.7292752659282 2575.35984448443 80.4517981268602 2581.84024101377 
! Port Impedance         50               0                50               0                
54                             0.157583151875439 39.7021474404438 0.858212294758915 133.489939231995 0.858212294758915 133.489939231995 0.15725673637039 39.8817165107154 
! Gamma         80.0526825898924 2623.96801420023 81.8019702712597 2630.55534356567 
! Port Impedance         50               0                50               0                
55                             0.16728602794902 36.4928781160752 0.85474296564571 129.333672776353 0.85474296564571 129.333672776353 0.16694665873957 36.5940658082826 
! Gamma         81.3750139214693 2672.58753550936 83.1509291992413 2679.28175618184 
