! Touchstone file exported from HFSS 2024.2.0
!        File:           C:/Users/vaintrug/Documents/Ansoft_Workspace/Comparaison_Calculs_HFSS/1_VarPort.aedt
!        Generated:      03:22:18 PM Jan 21, 2025
!        Design:         1_NoDeembed_FacePortFree
!        Project:        1_VarPort
!        Setup:          Setup1
!        Solution:       Sweep
!
! Variables:
!        $Lenght = 2000um
!        $PortSize = 200um
!        Gap = 30um
!        Th = 2um
!        X_centralStrip = 20um
!        X_masse = 200um
!        Y_Sub = 2mm
!        Z_Box = 400um
!        Z_Sub = 200um
!
# GHz S MA R 50.000000
! Terminal data exported
! Port[1] = 1
! Port[2] = 2
1                              0.0279980587809806 61.4739231455664 0.985400582948751 -5.90341449637136 0.985400582948751 -5.90341449637136 0.0280047379981556 61.4404168781284 
! Gamma         5.72345672418037 49.6381603691585 6.00844347354525 50.3100949352185 
! Port Impedance         50               0                50               0                
2                              0.0499666990501596 66.9270127847328 0.9818444705621  -11.6698567159155 0.9818444705621  -11.6698567159155 0.0499740495034942 66.8495586271994 
! Gamma         7.35920754844854 98.0904113828444 7.87948650233825 99.1269395272876 
! Port Impedance         50               0                50               0                
3                              0.072161192118858 65.8312305694518 0.978221878665535 -17.4375238721821 0.978221878665536 -17.4375238721821 0.0721642210889803 65.7152257459122 
! Gamma         8.70902809347016 146.613733076137 9.34705932004353 147.963122524522 
! Port Impedance         50               0                50               0                
4                              0.0938094103957702 62.5730740685154 0.974169903769396 -23.1955521515965 0.974169903769395 -23.1955521515965 0.0938050585765095 62.4192751591103 
! Gamma         10.0016740174183 195.19677109008  10.7108619780101 196.869930941447 
! Port Impedance         50               0                50               0                
5                              0.114467953754286 58.3821582651795 0.969675569139606 -28.9344573645301 0.969675569139607 -28.9344573645301 0.114453389515602 58.1903829217007 
! Gamma         11.2936768797068 243.804227212321 12.0581200236675 245.812646837085 
! Port Impedance         50               0                50               0                
6                              0.133836525438625 53.7279534425979 0.964808127011517 -34.6477734302554 0.964808127011516 -34.6477734302554 0.13380904470068 53.497782006542  
! Gamma         12.6009804217134 292.416559501124 13.4158823179972 294.767106026333 
! Port Impedance         50               0                50               0                
7                              0.151689182736621 48.8266003677165 0.959665779850956 -40.3311983781943 0.959665779850955 -40.3311983781943 0.151646241792574 48.5574991137952 
! Gamma         13.928045067676  341.022818967501 14.7928744908084 343.718846466546 
! Port Impedance         50               0                50               0                
8                              0.167850417533767 43.7909904655194 0.954357904128306 -45.982220025063 0.954357904128306 -45.9822200250631 0.167789656932445 43.4823337862303 
! Gamma         15.275240751504  389.616397357112 16.1911545815772 392.658960450446 
! Port Impedance         50               0                50               0                
9                              0.182184733765616 38.6853945298236 0.948995690258928 -51.5999215827695 0.948995690258929 -51.5999215827695 0.1821039892451  38.3364652400573 
! Gamma         16.6412173598352 438.19312020247  17.6099876641787 441.581783975013 
! Port Impedance         50               0                50               0                
10                             0.194590422086287 33.548554228628  0.94368583206327 -57.1848242261533 0.94368583206327 -57.1848242261533 0.194487728339246 33.1585374114537 
! Gamma         18.0238437572081 486.750347285994 19.0473722762993 490.483701577834 
! Port Impedance         50               0                50               0                
11                             0.204994709077675 28.4046528715479 0.938525939149605 -62.7387214002085 0.938525939149605 -62.7387214002085 0.204868300715785 27.9726262530709 
! Gamma         19.4206522688367 535.286501247682 20.5007382367633 539.36249496106  
! Port Impedance         50               0                50               0                
12                             0.213349475741457 23.2690680026326 0.933601246091556 -68.2644959064795 0.933601246091554 -68.2644959064795 0.213197788115159 22.793989151297  
! Gamma         20.829079579867  583.800788763816 21.9673076528838 588.216956339326 
! Port Impedance         50               0                50               0                
13                             0.219627403229408 18.1516723287416 0.928982397212059 -73.7659234178658 0.928982397212059 -73.7659234178658 0.219449074477005 17.6323620580388 
! Gamma         22.2466093877837 632.293015383516 23.444299521851  637.046636217767 
! Port Impedance         50               0                50               0                
14                             0.223818610570652 13.0589036592776 0.924724124932694 -79.2474693241534 0.924724124932694 -79.2474693241534 0.223612485276996 12.4940245929392 
! Gamma         23.6708602665118 680.763449844771 24.9290517073968 685.851664078543 
! Port Impedance         50               0                50               0                
15                             0.225927885271037 7.99518962490874 0.920864649738867 -84.7140855993946 0.920864649738866 -84.7140855993946 0.225693019291278 7.38321847325295 
! Gamma         25.099639206356  729.212717722193 26.4190941580621 734.6326118357   
! Port Impedance         50               0                50               0                
16                             0.225972585633018 2.96403401862969 0.917425644669619 -90.171012785316 0.917425644669618 -90.171012785316 0.225708250850254 2.30322547541653 
! Gamma         26.5309717289569 777.641714578312 27.9121906134978 783.390385193857 
! Port Impedance         50               0                50               0                
17                             0.223981253480935 -2.03105486923306 0.91441263289192 -95.6235904922777 0.91441263289192 -95.6235904922777 0.223686940453777 -2.74271552225051 
! Gamma         27.9631154943352 826.051533741893 29.4063587528901 832.12613499727  
! Port Impedance         50               0                50               0                
18                             0.219992936292406 -6.98566701582911 0.911815719781957 -101.077078462523 0.911815719781956 -101.077078462523 0.219668351729727 -7.75052690976987 
! Gamma         29.3945618978632 874.443406077095 30.8998752441768 880.841184236454 
! Port Impedance         50               0                50               0                
19                             0.214057185911534 -11.8935094015511 0.909610595606396 -106.536489373999 0.909610595606395 -106.536489373999 0.21370224052895 -12.7143330511108 
! Gamma         30.8240292019255 922.818650070195 32.3912701963095 929.536968139517 
! Port Impedance         50               0                50               0                
20                             0.206234677524611 -16.745203797174 0.907759777128861 -112.006434327256 0.90775977712886 -112.006434327256 0.205849457725569 -17.6252897646238 
! Gamma         32.2504498262305 971.178630968473 33.8793143697226 978.214985273512 
! Port Impedance         50               0                50               0                
21                             0.196598382757694 -21.5266636033224 0.906214081915008 -117.490982121907 0.906214081915007 -117.490982121907 0.196183096186973 -22.4700079782487 
! Gamma         33.672953896998  1019.52472792052 35.3630017141204 1026.87675835468 
! Port Impedance         50               0                50               0                
22                             0.185235238257361 -26.2167175636918 0.9049143457987  -122.993534037619 0.904914345798701 -122.993534037619 0.18479011748609 -27.2282484101939 
! Gamma         35.0908506844618 1067.85830814305 36.8415291614427 1075.52380343598 
! Port Impedance         50               0                50               0                
23                             0.172248294656428 -30.7833805688068 0.903793399609511 -128.51671658098 0.903793399609511 -128.51671658098 0.171773432890414 -31.8693028821857 
! Gamma         36.5036091414575 1116.18070716741 38.3142752039764 1124.1576061784  
! Port Impedance         50               0                50               0                
24                             0.157759448409893 -35.1776141402384 0.902778315311886 -134.062295457367 0.902778315311886 -134.062295457367 0.157254521558588 -36.3459315630534 
! Gamma         37.9108384785197 1164.49321420552 39.7807782971714 1172.77960424649 
! Port Impedance         50               0                50               0                
25                             0.14191314801299 -39.3221920747946 0.901792914232059 -139.631114632919 0.901792914232059 -139.631114632919 0.141376938415184 -40.5835181731483 
! Gamma         39.3122694366535 1212.79706190535 41.2407159080388 1221.39117476215 
! Port Impedance         50               0                50               0                
26                             0.124882183317846 -43.0903882829512 0.900760502578218 -145.223064640559 0.900760502578217 -145.223064640559 0.124311737611894 -44.459237223905 
! Gamma         40.7077366727508 1261.09341958579 42.6938847244346 1269.9936259323  
! Port Impedance         50               0                50               0                
27                             0.106878569504401 -46.2617379949221 0.899606764842813 -150.837083993386 0.899606764842813 -150.837083993386 0.106267635874699 -47.7585804477139 
! Gamma         42.0971625469094 1309.38338944388 44.1401823590523 1318.58819206917 
! Port Impedance         50               0                50               0                
28                             0.0881781507810609 -48.4207990731953 0.898262708739848 -156.471196699838 0.898262708739848 -156.471196699838 0.0875140919833595 -50.0750594423201 
! Gamma         43.4805424539845 1357.66800493909 45.5795907264624 1367.17603125769 
! Port Impedance         50               0                50               0                
29                             0.0691866610274642 -48.6963702536379 0.896667521834258 -162.122587312698 0.896667521834258 -162.122587312698 0.0684439590674862 -50.5483559313612 
! Gamma         44.8579317324396 1405.94823098064 47.0121611788688 1415.75822513735 
! Port Impedance         50               0                50               0                
30                             0.0506522995652955 -44.9962663507991 0.894771176637677 -167.787712819473 0.894771176637678 -167.787712819473 0.0497790674865907 -47.0763365861759 
! Gamma         46.2294341298147 1454.22496545995 48.4380013582754 1464.33578024    
! Port Impedance         50               0                50               0                
31                             0.0344865675396894 -31.700180201491 0.892536613492136 -173.462448113161 0.892536613492136 -173.462448113161 0.0333957695210498 -33.7987435973965 
! Gamma         47.5951917694332 1502.49904168867 49.8572637249662 1512.90963049275 
! Port Impedance         50               0                50               0                
32                             0.0264622837284214 0.864109406097122 0.889941343299921 -179.142259196818 0.889941343299921 -179.142259196818 0.0252587516009995 0.119056388774159 
! Gamma         48.9553764864566 1550.77123154848 51.2701356376676 1561.48064053284 
! Port Impedance         50               0                50               0                
33                             0.0332258605616659 34.9109083414037 0.886978345641652 175.177604174169 0.886978345641652 175.177604174169 0.0324136219955802 35.2146390227006 
! Gamma         50.3101824393407 1599.04224907154 52.6768308633329 1610.04960954502 
! Port Impedance         50               0                50               0                
34                             0.0486722519601599 49.4771620073606 0.883656189402565 169.501906459691 0.883656189402565 169.501906459691 0.0481742548663188 49.4391562060997 
! Gamma         51.6598198718577 1647.31275423274 54.0775823762599 1658.61727547765 
! Port Impedance         50               0                50               0                
35                             0.0665502500886309 53.7326986431812 0.879998365959149 163.83522588958  0.879998365959151 163.83522588958  0.0661893697441369 53.3126717688411 
! Gamma         53.0045098710815 1695.58335689419 55.4726363201047 1707.18431931886 
! Port Impedance         50               0                50               0                
36                             0.0847721148066836 53.7581466431549 0.876041890427995 158.181766471082 0.876041890427995 158.181766471082 0.0844581145781593 53.0584411541748 
! Gamma         54.3444800324695 1743.85462070111 56.8622469750507 1755.7513694883  
! Port Impedance         50               0                50               0                
37                             0.102557018696077 51.816251371139  0.871835284890924 152.545192157597 0.871835284890925 152.545192157597 0.102241621512389 50.9037327267054 
! Gamma         55.6799608990789 1792.12706692222 58.2466726200663 1804.31900609377 
! Port Impedance         50               0                50               0                
38                             0.119504952096171 48.8388502964196 0.867436100818936 146.928490931236 0.867436100818935 146.928490931236 0.119158206468995 47.7522085293517 
! Gamma         57.0111830703213 1840.40117813411 59.6261721601493 1852.88776506393 
! Port Impedance         50               0                50               0                
39                             0.135359463628824 45.2666056782474 0.862908161111557 141.333874003542 0.862908161111558 141.333874003542 0.134960202003454 44.0282094243165 
! Gamma         58.3383748913863 1888.67740171261 61.0010024230055 1901.4581421038  
! Port Impedance         50               0                50               0                
40                             0.149934817978332 41.3324668610522 0.858318704070978 135.762712615755 0.858318704070978 135.762712615755 0.149466482618645 39.9550808858938 
! Gamma         59.6617606220815 1936.9561531497  62.3714160076842 1950.03059640338 
! Port Impedance         50               0                50               0                
41                             0.163089001959385 37.170586074103  0.853735594733132 130.215512339557 0.853735594733132 130.215512339557 0.162537613770312 35.6609469005512 
! Gamma         60.9815590375306 1985.23781911576 63.7376596231645 1998.60555412999 
! Port Impedance         50               0                50               0                
42                             0.174711778572726 32.8635229765946 0.849224738381797 124.691922603025 0.849224738381798 124.691922603025 0.174064840151159 31.2242770901019 
! Gamma         62.2979823578402 2033.52276031684 65.0999728197787 2047.18341165682 
! Port Impedance         50               0                50               0                
43                             0.184718335561063 28.4648548182338 0.844847793191078 119.190777579045 0.844847793191078 119.190777579045 0.183964172114002 26.6956280812801 
! Gamma         63.6112354785511 2081.81131412252 66.4585870626076 2095.76453855435 
! Port Impedance         50               0                50               0                
44                             0.193045248356319 24.0109548635678 0.840660240005117 113.710163614938 0.840660240005117 113.710163614938 0.192172562450728 22.1089340041585 
! Gamma         64.9215154365158 2130.10379698478 67.8137250814982 2144.34928032818 
! Port Impedance         50               0                50               0                
45                             0.199647537856621 19.5276008323472 0.836709832344321 108.247508010881 0.836709832344321 108.247508010881 0.19864506693028 17.4878191029156 
! Gamma         66.2290110775791 2178.40050661788 69.1656004472596 2192.93796092971 
! Port Impedance         50               0                50               0                
46                             0.204496366866075 15.0339557081496 0.833035422220883 102.799684070869 0.833035422220883 102.799684070869 0.203352582162929 12.8493805528158 
! Gamma         67.5339028742003 2226.70172402161 70.5144173429144 2241.53088504253 
! Port Impedance         50               0                50               0                
47                             0.207577219781924 10.5451528342675 0.829666138736075 97.3631277763889 0.829666138736075 97.3631277763889 0.206280027509034 8.20662327841489 
! Gamma         68.8363628834282 2275.00771528914 71.8603704797481 2290.12834016197 
! Port Impedance         50               0                50               0                
48                             0.208888528854225 6.0741271653656  0.826620886790438 91.9339620516314 0.826620886790437 91.9339620516314 0.207424942958741 3.5701592393559  
! Gamma         70.1365548062144 2323.31873323819 73.2036451351509 2338.7305984597  
! Port Impedance         50               0                50               0                
49                             0.20844075344805 1.63305593803342 0.823908131356439 86.508125215707  0.82390813135644 86.508125215707  0.206796510153399 -1.05048554732557 
! Gamma         71.4346341164259 2371.63501891399 74.5444172954356 2387.33791849218 
! Port Impedance         50               0                50               0                
50                             0.206255929682521 -2.76536013195671 0.821525936927917 81.0815007962153 0.821525936927917 81.0815007962153 0.204415008669978 -5.6457418751345 
! Gamma         72.73074826817   2419.95680289525 75.8828538573189 2435.95054672629 
! Port Impedance         50               0                50               0                
51                             0.202367707910952 -7.10659935386904 0.819462239666349 75.6500462576036 0.819462239666349 75.6500462576036 0.20031171355101 -10.2048875793554 
! Gamma         74.02503694029   2468.28430651582 77.2191129017806 2484.56871890909 
! Port Impedance         50               0                50               0                
52                             0.196821895031862 -11.3728357406257 0.817695339398736 70.2099184131086 0.817695339398736 70.2099184131085 0.194529231319975 -14.7148083867721 
! Gamma         75.317632320354  2516.61774292276 78.5533439990412 2533.19266130219 
! Port Impedance         50               0                50               0                
53                             0.189677527334178 -15.5410634194641 0.816194607753173 64.7575932808211 0.816194607753173 64.7575932808211 0.187122267847346 -19.1584501762814 
! Gamma         76.6086594090379 2564.95731804587 79.8856885503987 2581.82259179136 
! Port Impedance         50               0                50               0                
54                             0.18100852884699 -19.5805313473558 0.814921415475012 59.289977946815  0.814921415475011 59.289977946815  0.178158830158903 -23.5127014565167 
! Gamma         77.8982363437484 2613.30323144748 81.216280145241  2630.45872085943 
! Port Impedance         50               0                50               0                
55                             0.170906079599169 -23.4490138237186 0.813830284803245 53.8045116834557 0.813830284803245 53.8045116834557 0.167721898835539 -27.7452770859028 
! Gamma         79.1864747324659 2661.6556770945  82.5452449305344 2679.10125248847 
