! Touchstone file exported from HFSS 2024.2.0
!        File:           C:/Users/vaintrug/Documents/Ansoft_Workspace/Comparaison_Calculs_HFSS/1_VarPort.aedt
!        Generated:      03:22:19 PM Jan 21, 2025
!        Design:         1_NoDeembed_FacePortFree
!        Project:        1_VarPort
!        Setup:          Setup1
!        Solution:       Sweep
!
! Variables:
!        $Lenght = 2000um
!        $PortSize = 240um
!        Gap = 30um
!        Th = 2um
!        X_centralStrip = 20um
!        X_masse = 200um
!        Y_Sub = 2mm
!        Z_Box = 400um
!        Z_Sub = 200um
!
# GHz S MA R 50.000000
! Terminal data exported
! Port[1] = 1
! Port[2] = 2
1                              0.0273134253550566 60.9258588368462 0.985425322526601 -5.89952227457637 0.985425322526601 -5.89952227457637 0.0273093128094114 60.9510312162147 
! Gamma         6.0973167437371  50.3458345350662 5.8001151618476  49.8967269513482 
! Port Impedance         50               0                50               0                
2                              0.0485400490665493 66.5551700401675 0.981878980971726 -11.6623269001881 0.981878980971727 -11.6623269001881 0.0485364348520238 66.6110463831275 
! Gamma         8.04549454836002 99.1620568806058 7.55630739457973 98.4744762033502 
! Port Impedance         50               0                50               0                
3                              0.0699975278380232 65.5539174116091 0.978311849640629 -17.4259981236111 0.978311849640628 -17.4259981236111 0.0699980009763354 65.6369976206913 
! Gamma         9.57046202001643 147.940041628278 8.97102419961247 147.085479379313 
! Port Impedance         50               0                50               0                
4                              0.0909404410738211 62.3414420121701 0.974350103177794 -23.1810639719076 0.974350103177794 -23.1810639719076 0.0909473717780936 62.451119284109  
! Gamma         10.9653468706259 196.781274526493 10.3031272634658 195.757615319322 
! Port Impedance         50               0                50               0                
5                              0.11093187940322 58.1682311010397 0.969971547508541 -28.9184192325512 0.969971547508541 -28.9184192325512 0.1109473976764  58.3045379062081 
! Gamma         12.3320179538742 245.661447163997 11.6250029297191 244.458714865306 
! Port Impedance         50               0                50               0                
6                              0.129675820584618 53.5147698414759 0.965238186917666 -34.6318177333465 0.965238186917666 -34.6318177333465 0.12970192549141 53.6779076948145 
! Gamma         13.704560464635  294.556617151379 12.9588028787575 293.16778597344  
! Port Impedance         50               0                50               0                
7                              0.14694971779978 48.6029387300512 0.960241460740092 -40.3171003760811 0.960241460740092 -40.3171003760811 0.146988275293965 48.7931787551504 
! Gamma         15.0946945837076 343.451242590861 14.3115203438568 341.872417120526 
! Port Impedance         50               0                50               0                
8                              0.162580466949253 43.5488120670784 0.955084238016511 -45.9718265646794 0.95508423801651 -45.9718265646793 0.162633195727731 43.7664722632905 
! Gamma         16.5057824163637 392.33547173576  15.6846086043937 390.564963295358 
! Port Impedance         50               0                50               0                
9                              0.176433960049541 38.4185669243025 0.949871566929693 -51.595081547291 0.949871566929693 -51.595081547291 0.176502419945022 38.6640088189419 
! Gamma         17.9376638507017 441.202967882832 17.0771727962856 439.240551035334 
! Port Impedance         50               0                50               0                
10                             0.188408979982579 33.2521836514462 0.944704527489943 -57.1873237124048 0.944704527489943 -57.1873237124048 0.188494564311787 33.525814916953  
! Gamma         19.3885769474516 490.049656405309 18.4872397596997 487.896071797833 
! Port Impedance         50               0                50               0                
11                             0.198432553637273 28.0747197787489 0.939675777708257 -62.7502262034972 0.939675777708256 -62.7502262034973 0.198536484548877 28.3769994648732 
! Gamma         20.8560276620606 538.873009327035 19.9123499903416 536.529637092343 
! Port Impedance         50               0                50               0                
12                             0.206455905930304 22.9022203909711 0.934866346986177 -68.2865027995863 0.934866346986177 -68.2865027995863 0.206579231600614 23.2336661043982 
! Gamma         22.3372314099728 587.671612519879 21.3498710324284 585.140253009028 
! Port Impedance         50               0                50               0                
13                             0.212450838019327 17.7451043704495 0.930343457845461 -73.7997206862606 0.930343457845462 -73.7997206862606 0.212594430825281 18.106301490845  
! Gamma         23.8293579708662 636.44488280121  22.7971787713389 633.727604520098 
! Port Impedance         50               0                50               0                
14                             0.21640657082832 12.6102820082158 0.926159205112168 -79.2941063893104 0.926159205112168 -79.2941063893105 0.216571126072948 13.0018955182364 
! Gamma         25.3296749261306 685.192868216529 24.2517672282083 682.291899094996 
! Port Impedance         50               0                50               0                
15                             0.218327141830506 7.50260757202272 0.922349933599332 -84.7743511480187 0.922349933599331 -84.7743511480187 0.218513177052936 7.92539730147497 
! Gamma         26.835632895408  733.916097672278 25.7113150253814 730.833745588584 
! Port Impedance         50               0                50               0                
16                             0.218229426654787 2.42598327823157 0.918936169237605 -90.2454207014947 0.918936169237605 -90.2454207014947 0.218437282048391 2.8808237303363  
! Gamma         28.3449142262816 782.615462649535 27.1737233381506 779.354056358507 
! Port Impedance         50               0                50               0                
17                             0.216141821686729 -2.61569908659452 0.915922981375997 -95.7123729315346 0.915922981375996 -95.7123729315346 0.21637166269212 -2.1277926831285 
! Gamma         29.855457323262  831.292121510232 28.6371340523288 827.853966580269 
! Port Impedance         50               0                50               0                
18                             0.212103586836227 -7.61764766666208 0.913300683381218 -101.180185545542 0.913300683381218 -101.180185545542 0.212355410628094 -7.09548468529015 
! Gamma         31.3654641775905 879.947421354952 30.0999339418116 876.334767430113 
! Port Impedance         50               0                50               0                
19                             0.206164816755403 -12.5731715285626 0.911045809972528 -106.653595211199 0.911045809972528 -106.653595211199 0.206438465209661 -12.015339152135 
! Gamma         32.8733962787152 928.582834011216 31.5607489818533 924.797850843032 
! Port Impedance         50               0                50               0                
20                             0.19838698715946 -17.4724497888654 0.909122338534251 -112.136949251207 0.909122338534252 -112.136949251207 0.19868217015811 -16.8772487820747 
! Gamma         34.3779625945838 977.199904052315 33.0184319622873 973.244664475417 
! Port Impedance         50               0                50               0                
21                             0.188844013069027 -22.3008575689994 0.907483144607392 -117.634071194157 0.907483144607391 -117.634071194157 0.189160347981591 -21.6662125201991 
! Gamma         35.8781024205103 1025.80020709474 34.4720457403551 1021.67667549577 
! Port Impedance         50               0                50               0                
22                             0.177623765707211 -27.0364945904386 0.906071696182964 -123.148141947293 0.906071696182963 -123.148141947293 0.177960842239142 -26.3598258592249 
! Gamma         37.3729651994761 1074.3853169759  35.920843982436  1070.09534214051 
! Port Impedance         50               0                50               0                
23                             0.16483004114236 -31.64627062514  0.904823995837954 -128.681599009223 0.904823995837954 -128.681599009223 0.165187526662593 -30.9243077473214 
! Gamma         38.8618888782894 1122.95678032984 37.3642508133496 1118.50209185313 
! Port Impedance         50               0                50               0                
24                             0.150585097792657 -36.0792882101419 0.903670773501547 -134.236056814068 0.903670773501547 -134.236056814068 0.150962909400844 -35.3077922343347 
! Gamma         40.3443779853203 1171.51609776153 38.8018403577165 1166.89830511346 
! Port Impedance         50               0                50               0                
25                             0.135033185075176 -40.2548944452919 0.902539915953382 -139.812251772032 0.902539915953381 -139.812251772032 0.13543177674335 -39.4282381393997 
! Gamma         41.8200822380308 1220.06471015583 40.2333169230124 1215.28530398823 
! Port Impedance         50               0                50               0                
26                             0.11834624936342 -44.0394878634733 0.901359093742238 -145.410015731002 0.901359093742238 -145.410015731002 0.118767108835685 -43.1500217747244 
! Gamma         43.288776253074  1268.60398949863 41.6584963130111 1263.66434456572 
! Port Impedance         50               0                50               0                
27                             0.100735065567275 -47.1975253466274 0.900058514898482 -151.028281239597 0.900058514898483 -151.028281239597 0.101181618006773 -46.2346787586587 
! Gamma         44.7503407325497 1317.13523319169 43.0772885997889 1312.03661248415 
! Port Impedance         50               0                50               0                
28                             0.0824752859032502 -49.2768268066   0.898573702102676 -156.665121081946 0.898573702102676 -156.665121081946 0.0829546334278595 -48.2262441459769 
! Gamma         46.2047453159948 1365.65966126626 44.4896824752626 1360.40322100295 
! Port Impedance         50               0                50               0                
29                             0.0639799286671665 -49.304031930374 0.89684816118132 -162.317823070368 0.89684816118132 -162.317823070368 0.0645063233987214 -48.1496235904809 
! Gamma         47.6520331892431 1414.17841569358 45.8957312791898 1408.76521097198 
! Port Impedance         50               0                50               0                
30                             0.0460433381914351 -44.8557205879782 0.894835789791904 -167.982999052627 0.894835789791905 -167.982999052627 0.0466441087980773 -43.6062341089892 
! Gamma         49.0923074380314 1462.69256151277 47.2955406839357 1457.12355224345 
! Port Impedance         50               0                50               0                
31                             0.0308327484752587 -29.2151638173128 0.892502871087666 -173.656724788793 0.892502871087665 -173.656724788793 0.0315381591813005 -28.1076101967052 
! Gamma         50.525719094176  1511.20308909463 48.6892579306957 1505.47914617674 
! Port Impedance         50               0                50               0                
32                             0.0249205178314757 7.08189991594669 0.889829511153078 -179.334704952443 0.889829511153078 -179.334704952443 0.0255768054970715 7.17918863516656 
! Gamma         51.9524567824757 1559.71091735159 50.0770625588227 1553.83282883559 
! Port Impedance         50               0                50               0                
33                             0.033642535733508 38.9889596611929 0.886810411554758 174.987544613347 0.886810411554758 174.987544613347 0.033992511218818 38.756201289472  
! Gamma         53.3727378134903 1608.21689753872 51.4591584673795 1602.1853747308  
! Port Impedance         50               0                50               0                
34                             0.0494880115054849 51.1135952689048 0.883454916392399 169.314506791345 0.883454916392399 169.314506791345 0.0496504515718798 51.1789396167468 
! Gamma         54.7868006176194 1656.72181741653 52.8357672076362 1650.53750081083 
! Port Impedance         50               0                50               0                
35                             0.067128409677077 54.2262822314805 0.879786330713423 163.650475412885 0.879786330713423 163.650475412885 0.0672095085581766 54.531994641637  
! Gamma         56.194898368009  1705.22640559673 54.2071223524028 1698.88987057689 
! Port Impedance         50               0                50               0                
36                             0.0848997871803096 53.6664636788208 0.875840566078201 157.999379767963 0.875840566078201 157.999379767963 0.0849493013728339 54.1369961606744 
! Gamma         57.597293653499  1753.73133596916 55.5734648165659 1747.24309823047 
! Port Impedance         50               0                50               0                
37                             0.102153640756128 51.3752485580337 0.871664221020304 152.364630286647 0.871664221020304 152.364630286647 0.102197263541687 51.9665536126844 
! Gamma         58.99425407511   1802.23723203112 56.935039014265  1795.59775270904 
! Port Impedance         50               0                50               0                
38                             0.118540912140914 48.1607744705128 0.867312242217559 146.748992423716 0.867312242217559 146.748992423716 0.118593869353697 48.8475654813405 
! Gamma         60.3860486452806 1850.74467113629 58.2920897362058 1843.95436161164 
! Port Impedance         50               0                50               0                
39                             0.133829586975866 44.4102781663413 0.862845332127095 141.154493464652 0.862845332127095 141.154493464652 0.133901941462956 45.1774011053086 
! Gamma         61.7729448771827 1899.2541885534  59.6448596454092 1892.31341491422 
! Port Impedance         50               0                50               0                
40                             0.147847732943951 40.3307369367506 0.85832726982795 135.5823644851   0.85832726982795 135.5823644851   0.147946677882954 41.1687611323266 
! Gamma         63.1552064695766 1947.76628127913 60.9935872928176 1940.67536848558 
! Port Impedance         50               0                50               0                
41                             0.160461993953714 36.0423580118476 0.853822296145857 130.033017353597 0.853822296145857 130.033017353597 0.160592954099983 36.9452966613108 
! Gamma         64.5330914905656 1996.28141164881 62.3385055849943 1989.04064736548 
! Port Impedance         50               0                50               0                
42                             0.171567873635571 31.6195634637231 0.849392686401546 124.506054693711 0.849392686401546 124.506054693711 0.17173508500341 32.5836377533059 
! Gamma         65.9068509855962 2044.80001070242 63.6798406275591 2037.4096487935  
! Port Impedance         50               0                50               0                
43                             0.181084439073855 27.1108222164475 0.845096599987944 119.000309271318 0.845096599987944 119.000309271318 0.181291280575775 28.1337599469918 
! Gamma         67.2767279484981 2093.32248126995 65.01781087079   2085.78274503834 
! Port Impedance         50               0                50               0                
44                             0.188950863730403 22.5490726817733 0.840986260931275 113.513908391431 0.840986260931275 113.513908391431 0.189200063217445 23.6296968095049 
! Gamma         68.642956578331  2141.8492008447  66.3526265244442 2134.16028595822 
! Port Impedance         50               0                50               0                
45                             0.195123849256714 17.9576151817812 0.837106492127646 108.044358524942 0.837106492127646 108.044358524942 0.195417623444955 19.0955994064036 
! Gamma         70.0057617962654 2190.38052418928 67.6844891747759 2182.54260136969 
! Port Impedance         50               0                50               0                
46                             0.199575572271763 13.3536848055326 0.833493601071605 102.588645467361 0.833493601071605 102.588645467361 0.199915731861617 14.5494118755063 
! Gamma         71.3653589434397 2238.91678574921 69.0135915887197 2230.93000318059 
! Port Impedance         50               0                50               0                
47                             0.202292041716802 8.75078448156679 0.830174597933341 97.1433456909514 0.830174597933341 97.1433456909514 0.202680079766649 10.0052727047982 
! Gamma         72.7219536656813 2287.45830181122 70.3401176457895 2279.32278734251 
! Port Impedance         50               0                50               0                
48                             0.203271845456912 4.16034509043194 0.827166717923294 91.7047450788299 0.827166717923294 91.7047450788299 0.203709020861652 5.47522472162634 
! Gamma         74.075741909704  2336.00537248629 71.6642423844384 2327.72123560239 
! Port Impedance         50               0                50               0                
49                             0.202525296497396 -0.406964002621883 0.824477217884819 86.2689617887228 0.824477217884819 86.2689617887228 0.203012721865226 0.970566761367899 
! Gamma         75.4269100377556 2384.5582834988  72.9861321436728 2376.12561711639 
! Port Impedance         50               0                50               0                
50                             0.200073994333804 -4.94006608566587 0.822103420481847 80.8320704746303 0.822103420481846 80.8320704746303 0.200612737229349 -3.49693866898423 
! Gamma         76.7756350180633 2433.11730778986 74.3059447632418 2424.53618985918 
! Port Impedance         50               0                50               0                
51                             0.195950812860172 -9.42628910608071 0.820032986133055 75.3902254473813 0.820032986133055 75.3902254473813 0.196542020798   -7.91383587022594 
! Gamma         78.1220846790296 2481.68270699326 75.6238298431059 2472.95320192083 
! Port Impedance         50               0                50               0                
52                             0.190200321666932 -13.8499997817678 0.818244401092367 69.9397805196036 0.818244401092367 69.9397805196036 0.190845384510396 -12.2635609025324 
! Gamma         79.4664180112044 2530.25473271429 76.9399290367545 2521.37689267211 
! Port Impedance         50               0                50               0                
53                             0.182879650393083 -18.1908610861644 0.81670767777743 64.4774032750059 0.81670767777743 64.4774032750059 0.183580419569045 -16.5246368202416 
! Gamma         80.808785506157  2578.8336277249  78.2543763746261 2569.80749378567 
! Port Impedance         50               0                50               0                
54                             0.174059825523152 -22.4214185598802 0.81538526892663 59.00018132379   0.815385268926631 59.0001813237901 0.174818919113773 -20.6681780393932 
! Gamma         82.1493295145043 2627.41962700776 79.5672986039445 2618.24523017709 
! Port Impedance         50               0                50               0                
55                             0.163827663071571 -26.5035311635526 0.814233198928035 53.5057178353588 0.814233198928036 53.5057178353588 0.164648902011021 -24.6542120222578 
! Gamma         83.4881846208024 2676.01295869468 80.8788155372075 2666.69032082302 
