! Touchstone file exported from HFSS 2024.2.0
!        File:           C:/Users/vaintrug/Documents/Ansoft_Workspace/Comparaison_Calculs_HFSS/1_VarPort.aedt
!        Generated:      03:22:17 PM Jan 21, 2025
!        Design:         1_NoDeembed_FacePortFree
!        Project:        1_VarPort
!        Setup:          Setup1
!        Solution:       Sweep
!
! Variables:
!        $Lenght = 1500um
!        $PortSize = 360um
!        Gap = 30um
!        Th = 2um
!        X_centralStrip = 20um
!        X_masse = 200um
!        Y_Sub = 1.5mm
!        Z_Box = 400um
!        Z_Sub = 200um
!
# GHz S MA R 50.000000
! Terminal data exported
! Port[1] = 1
! Port[2] = 2
1                              0.0207294242983168 62.5913076671446 0.989098762778227 -4.41960463928082 0.989098762778226 -4.41960463928082 0.0207338129174563 62.5582499373418 
! Gamma         5.91105032132921 49.8771502579959 6.14369545970239 50.4942494569585 
! Port Impedance         50               0                50               0                
2                              0.0370845462314606 69.7294702882671 0.986634484178802 -8.74309967435265 0.986634484178803 -8.74309967435265 0.0370873797737826 69.6580441004998 
! Gamma         7.68543007629873 98.4487420458505 8.07166304440899 99.5078319510867 
! Port Impedance         50               0                50               0                
3                              0.0538313513617669 70.1211391113518 0.984173557866609 -13.0712846807685 0.984173557866609 -13.0712846807685 0.0538298729762144 70.0165452453258 
! Gamma         9.1171843869308  147.025420128314 9.60086126145754 148.48343989657  
! Port Impedance         50               0                50               0                
4                              0.070444474992687 68.2945754022527 0.981445289716251 -17.3972947811094 0.981445289716251 -17.3972947811094 0.0704369458541248 68.156886445191  
! Gamma         10.4555793465858 195.661379483151 11.0066077992333 197.515600863271 
! Port Impedance         50               0                50               0                
5                              0.0866617725694343 65.5043547568175 0.978415136467071 -21.7155905664175 0.978415136467071 -21.7155905664175 0.086646332504109 65.3330611075602 
! Gamma         11.7797389390874 244.328782639709 12.3853766652805 246.582577945727 
! Port Impedance         50               0                50               0                
6                              0.102317445630379 62.2246348142244 0.975100275884784 -26.0223384996225 0.975100275884784 -26.0223384996225 0.102292173970793 62.0191476274676 
! Gamma         13.1146703240221 293.006244570765 13.7699691525103 295.662413834428 
! Port Impedance         50               0                50               0                
7                              0.117287767818894 58.6722532522561 0.971535992425764 -30.3147055816965 0.971535992425765 -30.3147055816965 0.117250747405941 58.4319280271302 
! Gamma         14.4683800084254 341.680668400619 15.1719081302378 344.74064690832  
! Port Impedance         50               0                50               0                
8                              0.131473214487757 54.9601701211157 0.96776605702382 -34.5905802019875 0.967766057023821 -34.5905802019875 0.131422558074554 54.6842875831669 
! Gamma         15.8426627518053 390.343948045502 16.5946164413887 393.807997262351 
! Port Impedance         50               0                50               0                
9                              0.14479158440678 51.1529668598406 0.9638385215658  -38.8484591049482 0.9638385215658  -38.8484591049482 0.144725441898073 50.8407146101825 
! Gamma         17.2367224491159 438.990943780574 18.0380331859489 442.858442732545 
! Port Impedance         50               0                50               0                
10                             0.157174796015182 47.2901453647887 0.959803169653028 -43.087389843021 0.959803169653028 -43.087389843021 0.157091352574917 46.9406020319392 
! Gamma         18.6485967254015 487.618404547598 19.5004804208606 491.888094271121 
! Port Impedance         50               0                50               0                
11                             0.168567002441967 43.3970701473524 0.95570966330686 -47.306929050365 0.955709663306859 -47.306929050365 0.168464471873307 43.0091901330228 
! Gamma         20.0758058048227 536.224373530961 20.9795246691473 540.894544385664 
! Port Impedance         50               0                50               0                
12                             0.178923196002648 39.4905839815014 0.951606099446104 -51.5071025664394 0.951606099446105 -51.5071025664394 0.178799811322928 39.0631812823469 
! Gamma         21.5156871977433 584.807833177225 22.4724218379394 589.876466313981 
! Port Impedance         50               0                50               0                
13                             0.188208003354072 35.582109905749  0.947537875927252 -55.6883630973537 0.947537875927253 -55.6883630973536 0.18806200535999 35.1138398523737 
! Gamma         22.9655849629944 633.36847249304  23.976367404281  638.833347427806 
! Port Impedance         50               0                50               0                
14                             0.196394572696484 31.679477346491  0.943546819681141 -59.8515448777279 0.943546819681141 -59.8515448777279 0.196224196758732 31.1688154142964 
! Gamma         24.4229624505852 681.906520805565 25.4886444257743 687.765297828966 
! Port Impedance         50               0                50               0                
15                             0.203463532467073 27.7880606176224 0.939670542775302 -63.9978161671159 0.939670542775302 -63.9978161671159 0.203266993455702 27.2332773893162 
! Gamma         25.8854697436564 730.422620795552 27.0067122066481 736.672904393559 
! Port Impedance         50               0                50               0                
16                             0.209402029703554 23.9115276675564 0.935941994471162 -68.1286307634177 0.935941994471162 -68.1286307634177 0.209177504740419 23.3106590586753 
! Gamma         27.3509818863147 778.917727051292 28.5282574352976 785.557114579014 
! Port Impedance         50               0                50               0                
17                             0.21420286381752 20.0523585570042 0.932389177783083 -72.2456796471029 0.932389177783083 -72.2456796471029 0.213948472370438 19.40317016361   
! Gamma         28.8176170675513 827.393023196697 30.0512201537619 834.41914190573  
! Port Impedance         50               0                50               0                
18                             0.217863730594395 16.2122233989305 0.929035000327061 -76.3508436232546 0.929035000327061 -76.3508436232546 0.217577511274634 15.512167606331  
! Gamma         30.2837407678116 875.849853504373 31.5738024241484 883.260388309165 
! Port Impedance         50               0                50               0                
19                             0.220386587098696 12.392272900094  0.925897231913193 -80.4461475498157 0.925897231913194 -80.4461475498157 0.220066470342835 11.6384370056984 
! Gamma         31.7479600293014 924.289666677529 33.0944649521316 932.082380343823 
! Port Impedance         50               0                50               0                
20                             0.221777143269454 8.593374769339   0.922988545116685 -84.5337164940844 0.922988545116685 -84.5337164940844 0.221420918871843 7.78241787299957 
! Gamma         33.2091110327903 972.713970027391 34.6119155118747 980.886717306043 
! Port Impedance         50               0                50               0                
21                             0.222044481701393 4.81631833963903 0.920316619429216 -88.615733964129 0.920316619429215 -88.615733964129 0.221649759866241 3.94439406048057 
! Gamma         34.6662422986359 1021.12429266903 36.1250921095651 1029.67502957045 
! Port Impedance         50               0                50               0                
22                             0.221200803349722 1.06200388076372 0.917884294192343 -92.6944022324775 0.917884294192343 -92.6944022324775 0.220764967535422 0.1246650323968  
! Gamma         36.1185954062772 1069.52215656545 37.6331429624327 1078.44894568989 
! Port Impedance         50               0                50               0                
23                             0.219261294324935 -2.66836963179588 0.915689759879118 -96.7719046914157 0.915689759879118 -96.7719046914157 0.218781443577862 -3.67628960167836 
! Gamma         37.5655845664282 1117.90905431502 39.1354049525527 1127.21006708436 
! Port Impedance         50               0                50               0                
24                             0.216244106903241 -6.37310504764275 0.913726781292768 -100.850370153942 0.913726781292768 -100.850370153942 0.215716984577432 -7.45764082434623 
! Gamma         39.0067761038527 1166.28643258232 40.6313817641269 1175.95994909523 
! Port Impedance         50               0                50               0                
25                             0.212170446490889 -10.0497811117349 0.911984949713952 -104.93183904575 0.911984949713952 -104.93183904575 0.211592351074518 -11.2180240771588 
! Gamma         40.441868528518  1214.65568039368 42.1207225202043 1224.70008736109 
! Port Impedance         50               0                50               0                
26                             0.207064755827643 -13.6949816252225 0.910449963760424 -109.018231459035 0.910449963760424 -109.018231459035 0.206431427902105 -14.9553214429701 
! Gamma         41.8706737719515 1263.01812125495 43.6032014884084 1273.43190864104 
! Port Impedance         50               0                50               0                
27                             0.200954987593068 -17.3039544749566 0.909103940864878 -113.111317143605 0.909103940864877 -113.111317143605 0.200261464399324 -18.6663923761663 
! Gamma         43.2930998022032 1311.37500854084 45.0786992899955 1322.15676514965 
! Port Impedance         50               0                50               0                
28                             0.193872958014552 -20.8701639919131 0.907925762560548 -117.21268756736 0.907925762560548 -117.21268756736 0.193113383288753 -22.34672436146  
! Gamma         44.7091348585819 1359.72752333828 46.5471857337667 1370.87593174896 
! Port Impedance         50               0                50               0                
29                             0.185854776952391 -24.3846811748434 0.906891457394984 -121.323730306407 0.906891457394983 -121.323730306407 0.185022147745977 -25.9899601817342 
! Gamma         46.1188333466085 1408.07677429457 48.0087044237668 1419.59060536106 
! Port Impedance         50               0                50               0                
30                             0.176941356462744 -27.8353245897987 0.905974625039466 -125.445606092903 0.905974625039465 -125.445606092903 0.176027179300955 -29.587233160868 
! Gamma         47.5223033537168 1456.4237989299  49.4633591097418 1468.30190603929 
! Port Impedance         50               0                50               0                
31                             0.167179011935886 -31.2054101687855 0.905146904225052 -129.579228956852 0.905146904225053 -129.579228956852 0.166172825431117 -33.1261978097269 
! Gamma         48.9196957552363 1504.76956604093 50.9113017334403 1517.01087931886 
! Port Impedance         50               0                50               0                
32                             0.15662019325494 -34.4718714945018 0.904378485386603 -133.725249960867 0.904378485386604 -133.725249960867 0.15550888879372 -36.5895642009294 
! Gamma         50.3111947994285 1553.11497889374 52.352722056541  1565.71849943018 
! Port Impedance         50               0                50               0                
33                             0.145324427923351 -37.6023350147278 0.903638666481166 -137.884045067714 0.903638666481165 -137.884045067714 0.144091255956081 -39.9527965727837 
! Gamma         51.6970100399096 1601.46087889463 53.7878387647673 1614.42567312371 
! Port Impedance         50               0                50               0                
34                             0.133359645285275 -40.5503963589004 0.902896447475632 -142.055707705875 0.902896447475631 -142.055707705875 0.13198271556581 -43.180347775922 
! Gamma         53.0773694916228 1649.80804961925 55.2168918928018 1663.13324388255 
! Port Impedance         50               0                50               0                
35                             0.120804228977745 -43.2476677860362 0.902121155601172 -146.240046560228 0.902121155601172 -146.240046560228 0.119254165050915 -46.2192054908943 
! Gamma         54.4525138815692 1698.15722091898 56.6401364396625 1711.84199628366 
! Port Impedance         50               0                50               0                
36                             0.107750527760103 -45.5897434001281 0.901283089918255 -150.436589050646 0.901283089918256 -150.436589050646 0.10598664653533 -48.9872194166521 
! Gamma         55.8226918712071 1746.50907311364 58.0578370451943 1760.55266046042 
! Port Impedance         50               0                50               0                
37                             0.0943114352820571 -47.4100566713816 0.900354170289118 -154.644590837377 0.900354170289117 -154.644590837377 0.0922752300300625 -51.3505936758334 
! Gamma         57.1881561099665 1794.86424108454 59.470263579196  1809.26591648318 
! Port Impedance         50               0                50               0                
38                             0.0806338354361542 -48.4281035173748 0.899308572860049 -158.863051532358 0.899308572860048 -158.863051532358 0.0782372789780945 -53.0769853845675 
! Gamma         58.5491600290358 1843.22331824115 60.8776875378183 1857.98239861829 
! Port Impedance         50               0                50               0                
39                             0.0669286307373203 -48.1398432182115 0.89812333192422 -163.090736590777 0.898123331924221 -163.090736590777 0.0640321154070736 -53.7280106727184 
! Gamma         59.9059552598284 1891.58686031596 62.2803791366997 1906.70269943125 
! Port Impedance         50               0                50               0                
40                             0.0535445460954287 -45.57174063604  0.896778886881549 -167.326205118794 0.896778886881549 -167.326205118794 0.049914385184442 -52.3828365911799 
! Gamma         61.2587895903378 1939.95538894342 63.6786049850628 1955.42737365665 
! Port Impedance         50               0                50               0                
41                             0.0411664723916715 -38.7351824855071 0.895259553193518 -171.567843092722 0.895259553193517 -171.567843092721 0.0364048519202817 -46.8363388108809 
! Gamma         62.6079053726514 1988.32939502913 65.0726262689528 2004.1569418429  
! Port Impedance         50               0                50               0                
42                             0.0313423824867621 -23.8888003980425 0.89355389784227 -175.813901229299 0.89355389784227 -175.813901229299 0.024934600954005 -31.3144894718885 
! Gamma         63.9535383226604 2036.70934186879 66.4626973641261 2052.89189373871 
! Port Impedance         50               0                50               0                
43                             0.0271877294741362 1.40343734709046 0.891655002880492 179.937463475538 0.891655002880492 179.937463475538 0.0197471476236358 2.7451757645359  
! Gamma         65.2959166296657 2085.09566805749 67.8490647971422 2101.63269146829 
! Port Impedance         50               0                50               0                
44                             0.0310372456439455 26.8451394199125 0.889560605022041 175.688143711873 0.889560605022042 175.688143711873 0.0250635619714012 36.352061650028  
! Gamma         66.6352603379715 2133.48879014279 69.2319665091325 2150.37977242102 
! Port Impedance         50               0                50               0                
45                             0.0405216359933085 41.89529369365   0.887273104597242 171.440036633302 0.887273104597243 171.440036633302 0.036383157981054 51.4887267355089 
! Gamma         67.9717809520992 2181.88910508526 70.611631364033  2199.13355193346 
! Port Impedance         50               0                50               0                
46                             0.052459751604733 48.8607105619725 0.884799443174565 167.19499881902  0.884799443174565 167.19499881902  0.0495320565088165 56.8960939025816 
! Gamma         69.3056812109827 2230.29699250472 71.9882788593606 2247.89442573793 
! Port Impedance         50               0                50               0                
47                             0.0652720379446122 51.5136592107994 0.882150855247855 162.954802792518 0.882150855247856 162.954802792518 0.0631216236936887 58.2052615172042 
! Gamma         70.6371550171751 2278.71281670654 73.3621189984205 2296.66277219583 
! Port Impedance         50               0                50               0                
48                             0.0782663554814018 51.8696979126509 0.879342505123947 158.721096393234 0.879342505123947 158.721096393234 0.0766476611678292 57.5659844535715 
! Gamma         71.966387479295  2327.13692856276 74.7333523004251 2345.43895434355 
! Port Impedance         50               0                50               0                
49                             0.0910963160568036 50.9152728957274 0.876393025057107 154.495366148578 0.876393025057107 154.495366148578 0.0898662744956953 55.8795069733007 
! Gamma         73.2935550494139 2375.56966718329 76.1021699138664 2394.22332173154 
! Port Impedance         50               0                50               0                
50                             0.103557580879108 49.1606157599674 0.873323974401647 150.278905608176 0.873323974401648 150.278905608176 0.102628156317738 53.5765526063959 
! Gamma         74.6188257262915 2424.01136147132 77.4687538091966 2443.01621212258 
! Port Impedance         50               0                50               0                
51                             0.115512237437451 46.8895149388785 0.87015924187228 146.072789357161 0.87015924187228 146.072789357161 0.114826535034319 50.8862715832883 
! Gamma         75.9423593244955 2472.46233150228 78.8332770422074 2491.81795300308 
! Port Impedance         50               0                50               0                
52                             0.126858060654054 44.2705310993476 0.866924413824504 141.877853181799 0.866924413824504 141.877853181799 0.126377869404883 47.9411903510708 
! Gamma         77.264307775853  2520.92288978872 80.1959040626149 2540.62886297872 
! Port Impedance         50               0                50               0                
53                             0.137514731005647 41.4094768252029 0.86364613088332 137.694680602497 0.86364613088332 137.694680602497 0.137213661113181 44.8231393043932 
! Gamma         78.5848154639418 2569.39334242066 81.5567910543116 2589.44925301612 
! Port Impedance         50               0                50               0                
54                             0.147417062117643 38.375886493096  0.860351453431961 133.523595752486 0.860351453431959 133.523595752486 0.147276557824237 41.5853505527866 
! Gamma         79.9040195799047 2617.87399010505 82.9160863113383 2638.2794275904  
! Port Impedance         50               0                50               0                
55                             0.156511362981582 35.217216494122  0.857067253741664 129.364662373562 0.857067253741664 129.364662373562 0.15651827492714 38.2639467264405 
! Gamma         81.2220504899549 2666.36512910285 84.2739306139379 2687.1196856955  
