! Touchstone file exported from HFSS 2024.2.0
!        File:           C:/Users/vaintrug/Documents/Ansoft_Workspace/Comparaison_Calculs_HFSS/1_VarPort.aedt
!        Generated:      03:22:17 PM Jan 21, 2025
!        Design:         1_NoDeembed_FacePortFree
!        Project:        1_VarPort
!        Setup:          Setup1
!        Solution:       Sweep
!
! Variables:
!        $Lenght = 1500um
!        $PortSize = 340um
!        Gap = 30um
!        Th = 2um
!        X_centralStrip = 20um
!        X_masse = 200um
!        Y_Sub = 1.5mm
!        Z_Box = 400um
!        Z_Sub = 200um
!
# GHz S MA R 50.000000
! Terminal data exported
! Port[1] = 1
! Port[2] = 2
1                              0.0211280787330175 62.8749943119903 0.989052941150427 -4.43184511018511 0.989052941150427 -4.43184511018511 0.0211269459289137 62.8870644127608 
! Gamma         6.01362031427227 49.9734619642356 5.96678624062307 50.0629412880573 
! Port Impedance         50               0                50               0                
2                              0.0377662266431387 69.6441054798546 0.986476215752665 -8.75875638336708 0.986476215752665 -8.75875638336707 0.0377670182466856 69.6680833457594 
! Gamma         7.83370995076411 98.5161856829572 7.82966787789881 98.6647936718404 
! Port Impedance         50               0                50               0                
3                              0.0547416236767833 69.9478425754052 0.983958510961927 -13.0892958613277 0.983958510961927 -13.0892958613277 0.0547459398401945 69.9811947644195 
! Gamma         9.27598477516587 147.081492255352 9.29344141963409 147.271291053144 
! Port Impedance         50               0                50               0                
4                              0.0715800231937272 68.0843371359906 0.98118478556085 -17.4179318306261 0.98118478556085 -17.4179318306261 0.071588678061301 68.1266893992944 
! Gamma         10.6208106140378 195.715028436017 10.6500229060693 195.946420255329 
! Port Impedance         50               0                50               0                
5                              0.0880176918023038 65.2679437156965 0.978108204515522 -21.738879698585 0.978108204515522 -21.738879698585 0.0880313767490306 65.3193438524873 
! Gamma         11.9513511360087 244.383191051814 11.9886905433232 244.658066602302 
! Port Impedance         50               0                50               0                
6                              0.10388459594204 61.9647057680279 0.974743082348222 -26.0480884803099 0.974743082348222 -26.0480884803099 0.103904002612769 62.0252701701022 
! Gamma         13.2932405063417 293.062524099509 13.3373927386829 293.382226494402 
! Port Impedance         50               0                50               0                
7                              0.119053828380905 58.3894757578184 0.971124572276207 -30.3425854272507 0.971124572276207 -30.3425854272508 0.119079666251447 58.459319479509  
! Gamma         14.654587173568  341.739060286845 14.7051329018285 342.104370084045 
! Port Impedance         50               0                50               0                
8                              0.133423643064464 54.654677770646  0.96729727261425 -34.6201708529262 0.967297272614251 -34.6201708529262 0.133456633647825 54.7339032080852 
! Gamma         16.0371699280563 390.404251920253 16.0940500710506 390.815566531237 
! Port Impedance         50               0                50               0                
9                              0.146910319024617 50.8247435972643 0.963310431963933 -38.8792885970958 0.963310431963932 -38.8792885970958 0.14695118545874 50.9134416999874 
! Gamma         17.4401355816184 439.052702844189 17.5034347648512 439.510174657327 
! Port Impedance         50               0                50               0                
10                             0.159444780693205 46.9391248753032 0.959215152324132 -43.118959423903 0.959215152324131 -43.118959423903 0.159494237174209 47.0373783888461 
! Gamma         18.8614453473595 487.681001564778 18.9312979940466 488.184627823593 
! Port Impedance         50               0                50               0                
11                             0.170970594035106 43.0231488047516 0.955062409639919 -47.3387337933278 0.955062409639919 -47.3387337933278 0.171029336011558 43.1310352249499 
! Gamma         20.2985344398665 536.287089219256 20.3750813882497 536.836769154859 
! Port Impedance         50               0                50               0                
12                             0.181442482550089 39.0936065495487 0.950901537659811 -51.5386481041119 0.950901537659812 -51.5386481041119 0.181511177718811 39.2112004008656 
! Gamma         21.7486529599984 584.869885506966 21.8320212371792 585.465457686191 
! Port Impedance         50               0                50               0                
13                             0.190825050463909 35.1618469619529 0.946779050337783 -55.7191792668578 0.946779050337783 -55.7191792668579 0.190904330442644 35.2892215086645 
! Gamma         23.2090597236106 633.429044510976 23.2993532046528 634.070312323677 
! Port Impedance         50               0                50               0                
14                             0.199091608609127 31.2356007481162 0.94273774468863 -59.8811967066885 0.94273774468863 -59.8811967066885 0.199182061158279 31.372829266403  
! Gamma         24.6771375567297 681.964781168915 24.7744337020563 682.651530582761 
! Port Impedance         50               0                50               0                
15                             0.206223079960192 27.320118838913  0.938816044309888 -64.0259125014431 0.938816044309888 -64.0259125014431 0.206325241659244 27.4672755839161 
! Gamma         26.1504626356493 730.477739094247 26.2548123627423 731.209751144107 
! Port Impedance         50               0                50               0                
16                             0.212206992157038 23.4189212469441 0.93504754798672 -68.1548307872107 0.93504754798672 -68.1548307872107 0.212321341470147 23.576082199806  
! Gamma         27.6268436476124 778.968885167956 27.73827299339   779.745944847975 
! Port Impedance         50               0                50               0                
17                             0.217036572405467 19.5343151481756 0.931460749178127 -72.2696975291192 0.931460749178128 -72.2696975291192 0.217163523099789 19.7015586250582 
! Gamma         29.1043404652656 827.439423190669 29.222853182422  828.261325969007 
! Port Impedance         50               0                50               0                
18                             0.220709959408405 15.6677716252224 0.928078894017877 -76.3724515093642 0.928078894017877 -76.3724515093642 0.220849854292014 15.8451787548008 
! Gamma         30.5812680930739 875.890723431312 30.7068488820961 876.757279405747 
! Port Impedance         50               0                50               0                
19                             0.223229542496471 11.8202139258178 0.924919948629611 -80.4651771155835 0.924919948629611 -80.4651771155835 0.223382647463237 12.0078690434461 
! Gamma         32.0561910077064 924.324263986956 32.1888085428305 925.235300944236 
! Port Impedance         50               0                50               0                
20                             0.224601433419046 7.99225029140212 0.9219966506588  -84.5500592469023 0.921996650658799 -84.5500592469023 0.224767931790576 8.19024123702352 
! Gamma         33.5279098674538 972.741583585452 33.6675201184861 973.696948687659 
! Port Impedance         50               0                50               0                
21                             0.224835071475269 4.1843733764739  0.919316624718707 -88.6293404699701 0.919316624718707 -88.6293404699701 0.225015058643271 4.39279170841722 
! Gamma         34.9954444373466 1021.14424346447 35.1419934781368 1022.14380414198 
! Port Impedance         50               0                50               0                
22                             0.22394295913817 0.397142354319337 0.91688254628423 -92.7052804094015 0.916882546284229 -92.7052804094015 0.224136437520563 0.61608345551971 
! Gamma         36.4580134858741 1069.53379751038 36.6114401755756 1070.57744163934 
! Port Impedance         50               0                50               0                
23                             0.2219405223975  -3.36863911787193 0.914692343252227 -96.780117292009 0.914692343252227 -96.780117292009 0.222147396736001 -3.13907606747052 
! Gamma         37.9150136346922 1117.9117691362  38.0752520151007 1118.99940494626 
! Port Impedance         50               0                50               0                
24                             0.218846087919011 -7.11173661602925 0.912739428610317 -100.856031537856 0.912739428610317 -100.856031537856 0.219066160963968 -6.87144885574151 
! Gamma         39.3659982827708 1166.27963440453 39.5329795350966 1167.41118978166 
! Port Impedance         50               0                50               0                
25                             0.214680967762061 -10.8302767587176 0.911012961247853 -104.935111311531 0.911012961247852 -104.935111311531 0.214913936409595 -10.5791584383784 
! Gamma         40.8106569878907 1214.63880981723 40.9843111267272 1215.81423154063 
! Port Impedance         50               0                50               0                
26                             0.20946964135632 -14.5215003258109 0.909498134894936 -109.019320002561 0.909498134894936 -109.019320002561 0.20971509333287 -14.2594433848161 
! Gamma         42.2487959318225 1262.99064420111 42.4290533519277 1264.20989705231 
! Port Impedance         50               0                50               0                
27                             0.203240024260625 -18.181453894966 0.908176497333857 -113.110465683721 0.908176497333857 -113.110465683721 0.203497435456788 -17.9083495841177 
! Gamma         43.6803203465539 1311.33641409343 43.8671127543359 1312.59947969781 
! Port Impedance         50               0                50               0                
28                             0.196023813696732 -21.8045870876362 0.907026303450615 -117.210172689327 0.907026303450615 -117.210172689327 0.196292546295703 -21.520328448994 
! Gamma         45.1052178978535 1359.67732124538 45.2984793566709 1360.98419722654 
! Port Impedance         50               0                50               0                
29                             0.187856902984728 -25.3832053742542 0.906022906279538 -121.319855555742 0.906022906279538 -121.319855555742 0.188136204529408 -25.0876912963527 
! Gamma         46.5235443777688 1408.01449289919 46.7232119052582 1409.36519158642 
! Port Impedance         50               0                50               0                
30                             0.178779861597625 -28.9066995444028 0.905139189996822 -125.440695676025 0.905139189996822 -125.440695676025 0.179068865140545 -28.5998414242365 
! Gamma         47.9354106895685 1456.34898268087 48.1414248269631 1457.74353032305 
! Port Impedance         50               0                50               0                
31                             0.168838487004238 -32.3604229240474 0.904346047785666 -129.573621100361 0.904346047785666 -129.573621100361 0.169136212463246 -32.0421557174766 
! Gamma         49.340971755366  1504.6817734157  49.5532768611604 1506.12020913103 
! Port Impedance         50               0                50               0                
32                             0.158084452836525 -35.7239981496087 0.903612905700888 -133.719290004253 0.903612905700888 -133.719290004253 0.158389809553166 -35.3942991226094 
! Gamma         50.7404166827245 1553.01378031598 50.958961226997  1554.49615519447 
! Port Impedance         50               0                50               0                
33                             0.146576113700911 -38.9686701085996 0.902908291129237 -137.878078385987 0.902908291129237 -137.878078385987 0.146887903945793 -38.6275914731322 
! Gamma         52.1339606281372 1601.34585472535 52.3586972192276 1602.87223105518 
! Port Impedance         50               0                50               0                
34                             0.13437959806571 -42.0530022775038 0.902200441312793 -142.050072571245 0.902200441312793 -142.050072571245 0.134696520569608 -41.7007299822885 
! Gamma         53.5218375799463 1649.67878833324 53.7527230767785 1651.24923883137 
! Port Impedance         50               0                50               0                
35                             0.121570467466878 -44.9155651814685 0.90145794385971 -146.235067079435 0.901457943859709 -146.235067079435 0.121891118466791 -44.5525292529751 
! Gamma         54.9042945686824 1698.01331737089 55.1412900100438 1699.62792452741 
! Port Impedance         50               0                50               0                
36                             0.108236540991455 -47.4618709212324 0.900650397436932 -150.432568331057 0.900650397436933 -150.432568331057 0.108559406147783 -47.0889633636542 
! Gamma         56.2815866825052 1746.35012694775 56.5246572224468 1748.00898241141 
! Port Impedance         50               0                50               0                
37                             0.0944832360817635 -49.5396050438669 0.899749077219283 -154.641804548945 0.899749077219283 -154.641804548945 0.0948066552941813 -49.1586375655216 
! Gamma         57.6539730305029 1794.68985518222 57.9030878257915 1796.39305929456 
! Port Impedance         50               0                50               0                
38                             0.0804446989938653 -50.8882883374633 0.898727586529679 -158.861742042164 0.898727586529679 -158.861742042164 0.0807667520540734 -50.5030292570929 
! Gamma         59.0217134677951 1843.03309737543 59.2768455125811 1844.78075867422 
! Port Impedance         50               0                50               0                
39                             0.0663094413007722 -51.0283293354368 0.897562473767968 -163.09110784076 0.897562473767968 -163.09110784076 0.0666275886902333 -50.6470740983073 
! Gamma         60.3850659251718 1891.38040987693 60.6461918770593 1893.17264469614 
! Port Impedance         50               0                50               0                
40                             0.0523864943715871 -48.9942029655875 0.896233792526852 -167.328418411045 0.896233792526852 -167.328418411045 0.0526963796458079 -48.6368064202861 
! Gamma         61.7442842738134 1939.73231373963 62.0113843108851 1941.56924587691 
! Port Impedance         50               0                50               0                
41                             0.039299027847618 -42.6556341733695 0.894725583003979 -171.572013918946 0.894725583003979 -171.572013918946 0.0395900613783246 -42.3739257013142 
! Gamma         63.0996167646889 1988.08929815748 63.3726743602207 1989.97105860834 
! Port Impedance         50               0                50               0                
42                             0.0285919941524917 -27.3338992711026 0.893026254540256 -175.820097251165 0.893026254540256 -175.820097251165 0.028830868280622 -27.2547121936842 
! Gamma         64.4513046959413 2036.45182373377 64.7303064858342 2038.37855040999 
! Port Impedance         50               0                50               0                
43                             0.0239351399489462 1.59022911312248 0.89112885236668 179.929223232748 0.891128852366679 179.929223232748 0.02404083904243 1.39883836041899 
! Gamma         65.7995816397627 2084.82032536821 66.0845171531346 2086.7921629387  
! Port Impedance         50               0                50               0                
44                             0.0284350055597529 30.5253585554451 0.889031196246618 175.677888432547 0.889031196246619 175.677888432547 0.0283865903721292 30.4386896334857 
! Gamma         67.144672622825  2133.19521507083 67.4355342027722 2135.2123147459  
! Port Impedance         50               0                50               0                
45                             0.0388747813650432 45.8682147536273 0.886735884326651 171.427842083692 0.886735884326651 171.427842083692 0.0387519241055548 46.0001373771613 
! Gamma         68.4867938775    2181.57688436775 68.7835764467089 2183.63940381953 
! Port Impedance         50               0                50               0                
46                             0.0515462826340451 52.2338082803234 0.884250161752135 167.180984593788 0.884250161752135 167.180984593788 0.0513996431356128 52.4992711988444 
! Gamma         69.8261525486164 2229.96570667642 70.1288534482731 2232.07380991949 
! Port Impedance         50               0                50               0                
47                             0.0648994498878851 54.3027905639042 0.881585659935433 162.939128556863 0.881585659935433 162.939128556863 0.0647508637965909 54.6467167073788 
! Gamma         71.1629466114627 2278.36203934318 71.4715654546709 2280.51589664575 
! Port Impedance         50               0                50               0                
48                             0.0783147749962643 54.2066565257576 0.878758018295851 158.703957271828 0.87875801829585 158.703957271828 0.0781747594669258 54.6019219717204 
! Gamma         72.4973649091258 2326.76622553645 72.8119034510432 2328.96601339447 
! Port Impedance         50               0                50               0                
49                             0.0914901285563466 52.9116272485229 0.87578640533438 154.476987443544 0.875786405334381 154.476987443544 0.0913646614788081 53.3442705440809 
! Gamma         73.829587345734  2375.17859600692 74.1500493055707 2377.4244970736  
! Port Impedance         50               0                50               0                
50                             0.104245876125057 50.8978288521753 0.872692959707299 150.259537040774 0.872692959707299 150.259537040774 0.104138840614437 51.3600788681112 
! Gamma         75.1597850106704 2423.59947056191 75.4861759923013 2425.89167368991 
! Port Impedance         50               0                50               0                
51                             0.116458313061943 48.4262603061172 0.869502174277696 146.052699036    0.869502174277697 146.052699036    0.116372470417424 48.9134694359963 
! Gamma         76.4881205353239 2472.02915955458 76.8204478695351 2474.36785976162 
! Port Impedance         50               0                50               0                
52                             0.128033823855733 45.6498013247091 0.866240246888865 141.857321493101 0.866240246888865 141.857321493101 0.127971241838656 46.1590145315693 
! Gamma         77.8147483217024 2520.46796512117 78.1530209988685 2522.8533636031  
! Port Impedance         50               0                50               0                
53                             0.138897611445353 42.6635808089245 0.862934420891194 137.67399420653  0.862934420891193 137.67399420653  0.138859867820929 43.1928165077848 
! Gamma         79.1398149470581 2568.91618232065 79.4840434951585 2571.3484864996  
! Port Impedance         50               0                50               0                
54                             0.148988244551029 39.5297645371073 0.859612336492907 133.503041844907 0.859612336492907 133.503041844907 0.148976528505413 40.0776270597577 
! Gamma         80.4634595200414 2617.37410019949 80.8136558975351 2619.85352374349 
! Port Impedance         50               0                50               0                
55                             0.158254740828509 36.2906367177821 0.85630141107777 129.344523349535 0.856301411077769 129.344523349535 0.158269904014034 36.8560937971964 
! Gamma         81.7858139696444 2665.84200267151 82.1419915488146 2668.36876557881 
