! Touchstone file exported from HFSS 2024.2.0
!        File:           C:/Users/vaintrug/Documents/Ansoft_Workspace/Comparaison_Calculs_HFSS/1_VarPort.aedt
!        Generated:      03:22:18 PM Jan 21, 2025
!        Design:         1_NoDeembed_FacePortFree
!        Project:        1_VarPort
!        Setup:          Setup1
!        Solution:       Sweep
!
! Variables:
!        $Lenght = 2000um
!        $PortSize = 220um
!        Gap = 30um
!        Th = 2um
!        X_centralStrip = 20um
!        X_masse = 200um
!        Y_Sub = 2mm
!        Z_Box = 400um
!        Z_Sub = 200um
!
# GHz S MA R 50.000000
! Terminal data exported
! Port[1] = 1
! Port[2] = 2
1                              0.0278154083389789 61.2737251894587 0.985389274013859 -5.90348487977215 0.985389274013858 -5.90348487977215 0.0278112004062363 61.2864367842326 
! Gamma         5.95191194016006 50.1240389559293 5.8987329240778  50.0420673850862 
! Port Impedance         50               0                50               0                
2                              0.0495827334274936 66.7737856160933 0.981843869897029 -11.6705814012566 0.981843869897028 -11.6705814012566 0.0495684537265296 66.8157353339846 
! Gamma         7.72598390635232 98.8466293639419 7.61737470579656 98.7429717936659 
! Port Impedance         50               0                50               0                
3                              0.071575807435546 65.678607253363  0.9782343720048  -17.4387420620771 0.978234372004799 -17.4387420620771 0.0715543176850648 65.7510213876328 
! Gamma         9.14094255164621 147.626311785818 9.00406358297765 147.520659581761 
! Port Impedance         50               0                50               0                
4                              0.0930219198112015 62.4069006606543 0.974204908861006 -23.1973290772647 0.974204908861006 -23.1973290772647 0.0929961562325732 62.5090325673284 
! Gamma         10.4744674384446 196.476165147759 10.3221451849185 196.366898778557 
! Port Impedance         50               0                50               0                
5                              0.113480093628484 58.1951777226637 0.969741625321125 -28.93706268271  0.969741625321125 -28.93706268271  0.113452573750703 58.3270236015377 
! Gamma         11.8000864797775 245.357966168474 11.6368501303077 245.242251007919 
! Port Impedance         50               0                50               0                
6                              0.132651103325285 53.5154755605191 0.964912134306336 -34.6515835219696 0.964912134306336 -34.6515835219696 0.132624153018584 53.6776189127976 
! Gamma         13.1393935325366 294.248633723653 12.9667050050981 294.124651895124 
! Port Impedance         50               0                50               0                
7                              0.150309504606818 48.5851418858827 0.959813012197025 -40.3366567048777 0.959813012197024 -40.3366567048776 0.150285394246401 48.7786027373753 
! Gamma         14.4988565670714 343.134957292049 14.3170059264511 343.001757051122 
! Port Impedance         50               0                50               0                
8                              0.166279997396734 43.5176690585537 0.954552065598272 -45.9898159625317 0.954552065598272 -45.9898159625317 0.166261031449228 43.7438407053018 
! Gamma         15.8795572788353 392.008956842326 15.6883681325649 391.866159727303 
! Port Impedance         50               0                50               0                
9                              0.180427103090472 38.377614461649  0.949238966554737 -51.6101749259947 0.949238966554736 -51.6101749259947 0.180415691746486 38.6382495208069 
! Gamma         17.2803431744725 440.865611692284 17.0794595670321 440.713208501112 
! Port Impedance         50               0                50               0                
10                             0.192648997199886 33.2038260870753 0.943978946616845 -57.1982717234013 0.943978946616846 -57.1982717234012 0.19264772046764 33.5010515392252 
! Gamma         18.6990579922246 489.701749535829 18.4880716927546 489.539971614335 
! Port Impedance         50               0                50               0                
11                             0.202872711934936 28.0204794853982 0.938868218498341 -62.755904235604 0.93886821849834 -62.755904235604 0.202884380151011 28.3568327499795 
! Gamma         20.1331075770423 538.515458378795 19.9116184582792 538.344695223093 
! Port Impedance         50               0                50               0                
12                             0.211049908834786 22.8428632317139 0.933990693805802 -68.2859478594606 0.933990693805802 -68.2859478594606 0.211077621718801 23.2213475331854 
! Gamma         21.5797572967461 587.305741573995 21.3474029374337 587.126486098451 
! Port Impedance         50               0                50               0                
13                             0.217153079581559 17.6806947014052 0.929415773409159 -73.7921595223572 0.92941577340916 -73.7921595223572 0.217200285857189 18.1048554230429 
! Gamma         23.0363036164744 636.072292804456 22.7927733052094 635.8851032814   
! Port Impedance         50               0                50               0                
14                             0.221172235801149 12.5401937984637 0.925197029124308 -79.2789749570298 0.925197029124309 -79.2789749570298 0.22124279607911 13.0142202307183 
! Gamma         24.5001778923075 684.815334737733 24.2452181835438 684.620807487262 
! Port Impedance         50               0                50               0                
15                             0.223112186553975 7.42550363026292 0.921371606323589 -84.7513058834978 0.921371606323589 -84.7513058834978 0.223210443346818 7.95436335264056 
! Gamma         25.9690089610497 733.535495080358 25.70242435582   733.334244336226 
! Port Impedance         50               0                50               0                
16                             0.222990479367171 2.33976603928317 0.917960192550505 -90.2143422421334 0.917960192550505 -90.2143422421334 0.223121339811894 2.9293827282033  
! Gamma         27.440658453389  782.233706914188 27.1623092229529 782.026349830047 
! Port Impedance         50               0                50               0                
17                             0.220836040564097 -2.71396790005963 0.914967422732468 -95.6733629327142 0.914967422732468 -95.6733629327142 0.221005079961307 -2.05647720320636 
! Gamma         28.9132370531531 830.911126867871 28.6230353687993 830.698272279168 
! Port Impedance         50               0                50               0                
18                             0.2166885108025  -7.73186687850324 0.912382623935618 -101.133557167631 0.912382623935617 -101.133557167631 0.21690210895764 -6.99787117919468 
! Gamma         30.3851072392597 879.569067378603 30.0830123641437 879.351307496451 
! Port Impedance         50               0                50               0                
19                             0.210598237969243 -12.7083751272624 0.91018083684957 -106.599857746061 0.91018083684957 -106.599857746061 0.210863766464097 -11.8872894917364 
! Gamma         31.8548764604393 928.208940902041 31.5408894986789 927.986845269858 
! Port Impedance         50               0                50               0                
20                             0.202626865206318 -17.6350616899722 0.908324082407884 -112.076787282733 0.908324082407884 -112.076787282733 0.20295295386318 -16.7137320158732 
! Gamma         33.3213837736891 976.832214477238 32.9955422979418 976.606325706665 
! Port Impedance         50               0                50               0                
21                             0.192848438133372 -22.4990680665381 0.906762866701507 -117.568318641776 0.906762866701507 -117.568318641776 0.193245366183799 -21.4608919951633 
! Gamma         34.7836823156023 1025.44037315655 34.4460551050384 1025.21120417537 
! Port Impedance         50               0                50               0                
22                             0.181350958815101 -27.2808275163982 0.905437932831602 -123.077751384137 0.905437932831602 -123.077751384137 0.181831246732625 -26.104466852476 
! Gamma         36.2410193413333 1074.03489143783 35.8917013912667 1073.80292377893 
! Port Impedance         50               0                50               0                
23                             0.168238348861831 -31.9504591332335 0.904282272997755 -128.607606781951 0.904282272997755 -128.607606781951 0.168817682847428 -30.6079003221606 
! Gamma         37.6928152940194 1122.61721129581 37.3319231515481 1122.38289436347 
! Port Impedance         50               0                50               0                
24                             0.15363288628238 -36.4616675099611 0.903223407142858 -134.159544694151 0.903223407142859 -134.159544694151 0.154331615661388 -34.915206630266 
! Gamma         39.1386428261104 1171.18872598115 38.7663103507152 1170.95247697372 
! Port Impedance         50               0                50               0                
25                             0.137678440029805 -40.740693095101 0.902185916203031 -139.734306158155 0.902185916203031 -139.734306158155 0.138524108749938 -38.9380857605694 
! Gamma         40.5782065593653 1219.7507685492  40.1945811073151 1219.51297296847 
! Port Impedance         50               0                50               0                
26                             0.120545486231666 -44.6647400921344 0.90109419012364 -145.331685737487 0.90109419012364 -145.331685737487 0.12157734058534 -42.5311257030959 
! Gamma         42.0113240283457 1268.30460437215 41.6165630662072 1268.06561689538 
! Port Impedance         50               0                50               0                
27                             0.102440693789457 -48.0159860754094 0.899875316454074 -150.950537313976 0.899875316454074 -150.950537313976 0.103718232461714 -45.4400966436915 
! Gamma         43.437908123753  1316.85142673962 43.0321762610656 1316.61157241306 
! Port Impedance         50               0                50               0                
28                             0.0836294154725021 -50.3722862060565 0.89846199936694 -156.588816051943 0.898461999366941 -156.588816051944 0.0852498706819502 -47.1833841437036 
! Gamma         44.8579511957813 1365.39235501375 44.44141763025   1365.15193063488 
! Port Impedance         50               0                50               0                
29                             0.0644995346391334 -50.8091312605203 0.896795367256378 -162.243657632684 0.896795367256378 -162.243657632684 0.0666365170126309 -46.7483121424433 
! Gamma         46.2715108576468 1413.92843469734 45.844347180227  1413.68771034611 
! Port Impedance         50               0                50               0                
30                             0.0457851687728564 -46.9394174601532 0.894827506142528 -167.911493690632 0.894827506142528 -167.911493690632 0.0487753196161288 -41.7296299626902 
! Gamma         47.6786974771059 1462.46063896003 47.2410758261256 1462.21985956732 
! Port Impedance         50               0                50               0                
31                             0.0295630350370343 -31.5207322302462 0.892523551578289 -173.588199854221 0.892523551578289 -173.588199854221 0.0339847315046874 -26.1413575412826 
! Gamma         49.079663274611  1510.98987121894 48.631754793982  1510.74925820049 
! Port Impedance         50               0                50               0                
32                             0.023023443778475 8.19625977007386 0.889863187168813 -179.269270214337 0.889863187168814 -179.269270214337 0.0283718899889808 6.55372522230106 
! Gamma         50.4745929210188 1559.51696850332 50.0165664940253 1559.27672134947 
! Port Impedance         50               0                50               0                
33                             0.0326293040250623 42.4414407673876 0.886841433546829 175.049990245801 0.886841433546829 175.049990245801 0.0364582472534122 36.0194238347645 
! Gamma         51.8636955081934 1608.04270523579 51.3957167362239 1607.80300308335 
! Port Impedance         50               0                50               0                
34                             0.0494100338256062 54.0945107467348 0.883468664265257 169.374265384156 0.883468664265257 169.374265384156 0.0518800248578381 48.591966732002  
! Gamma         53.2471977540464 1656.5677973534  52.7694281485774 1656.32880048908 
! Port Impedance         50               0                50               0                
35                             0.0677460258443022 56.6594882367055 0.879769847801263 163.708030681249 0.879769847801263 163.708030681249 0.069439026218938 52.3442819856763 
! Gamma         54.6253383146257 1705.092906504   54.137934664644  1704.85475781074 
! Port Impedance         50               0                50               0                
36                             0.0860725394398333 55.7245105950335 0.87578307875544 158.055369699108 0.87578307875544 158.055369699108 0.0872912863529004 52.2551847012869 
! Gamma         55.9983630582053 1753.61864428004 55.5014769640286 1753.38147058715 
! Port Impedance         50               0                50               0                
37                             0.103792776951131 53.1788526327326 0.871557517155612 152.419813603202 0.871557517155611 152.419813603202 0.104694251499386 50.3024658200351 
! Gamma         57.3665211823955 1802.14557633606 56.8602987267438 1801.90948969461 
! Port Impedance         50               0                50               0                
38                             0.120580085668656 49.7857441677568 0.867150894956507 146.804211094276 0.867150894956507 146.804211094276 0.121254029387882 47.3413916526721 
! Gamma         58.7300620711192 1850.67422638387 58.2146435916538 1850.43932524454 
! Port Impedance         50               0                50               0                
39                             0.136212805882603 45.9055554798247 0.862626768920005 141.210633551547 0.862626768920005 141.210633551547 0.136715519386523 43.7895464860118 
! Gamma         60.0892327660255 1899.20507996839 59.5647527283463 1898.97145029234 
! Port Impedance         50               0                50               0                
40                             0.150524335020133 41.7293206983448 0.858051698412995 135.640317513847 0.858051698412995 135.640317513847 0.150894071358361 39.8724709061261 
! Gamma         61.4442759736448 1947.73858804718 60.9108629286618 1947.50630429812 
! Port Impedance         50               0                50               0                
41                             0.163384509486259 37.3674007012349 0.85349250807692 130.093644096394 0.85349250807692 130.093644096394 0.163649108878389 35.7219919973233 
! Gamma         62.7954285309007 1996.27517030331 62.2532051255766 1996.04429639113 
! Port Impedance         50               0                50               0                
42                             0.174691136224146 32.8878423517208 0.849013764080917 124.570152883306 0.849013764080917 124.570152883306 0.174872117276414 31.4200795971376 
! Gamma         64.1429202356761 2044.81521826072 63.5920032834825 2044.58580837707 
! Port Impedance         50               0                50               0                
43                             0.184365246452887 28.3347907780601 0.844675555038566 119.06858632551  0.844675555038565 119.06858632551  0.184480149251398 27.0202984498365 
! Gamma         65.4869730046784 2093.35909811413 64.9274735927294 2093.13119750323 
! Port Impedance         50               0                50               0                
44                             0.192347871900685 23.7381193175958 0.84053163069893 113.5869598044   0.84053163069893 113.5869598044   0.192411681060074 22.5591625569153 
! Gamma         66.8278002832305 2141.9071533449  66.2598239131875 2141.68079901491 
! Port Impedance         50               0                50               0                
45                             0.198597552224005 19.1188614059816 0.836627917978337 108.122652215213 0.836627917978337 108.122652215213 0.198623610447838 18.0625837826315 
! Gamma         68.1656066761353 2190.45970712172 67.5892534309583 2190.23492846375 
! Port Impedance         50               0                50               0                
46                             0.203088300873523 14.492504706363  0.833001407862274 102.672512065698 0.833001407862273 102.672512065698 0.203088930202731 13.5497916755315 
! Gamma         69.5005877486626 2239.01706445717 68.9159524736543 2238.79388382456 
! Port Impedance         50               0                50               0                
47                             0.205807956065275 9.87114813055971 0.829679389469389 97.2329745349407 0.82967938946939 97.2329745349407 0.20579490897263 9.03589407785977 
! Gamma         70.8329299743659 2287.57951418816 70.2401024737133 2287.35794740832 
! Port Impedance         50               0                50               0                
48                             0.206756916762685 5.26504511321739 0.826678998995773 91.8001855380853 0.826678998995774 91.8001855380853 0.206741730510202 4.53369557307737 
! Gamma         72.1628107875225 2336.14733075548 71.5618760275519 2335.92738759222 
! Port Impedance         50               0                50               0                
49                             0.205947284198388 0.683831432181024 0.824007050100354 86.3701294550966 0.824007050100353 86.3701294550966 0.205941586536037 0.0551266862287688 
! Gamma         73.4903987308199 2384.72077581266 72.8814370492417 2384.50246038986 
! Port Impedance         50               0                50               0                
50                             0.203402428317513 -3.8623700423997 0.821660116702703 80.9387577147425 0.821660116702702 80.9387577147425 0.203418230155227 -4.38748958840113 
! Gamma         74.8158536689525 2433.30009967523 74.1989409826162 2433.08341083623 
! Port Impedance         50               0                50               0                
51                             0.199156989932445 -8.36181756627384 0.819624847036771 75.5021157873618 0.819624847036771 75.5021157873618 0.199206996344263 -8.78016005527797 
! Gamma         76.1393270547794 2481.88554263051 75.5145350705564 2481.67047426887 
! Port Impedance         50               0                50               0                
52                             0.193257321603397 -12.7998416423008 0.817878496936655 70.0564663175255 0.817878496936655 70.0564663175255 0.193355294728882 -13.1057629871154 
! Gamma         77.460962230924  2530.47733608377 76.8283586480927 2530.26387744756 
! Port Impedance         50               0                50               0                
53                             0.185762369959964 -17.157169138764 0.816389678704874 64.5984060991501 0.816389678704874 64.5984060991501 0.185923586367947 -17.3422003970521 
! Gamma         78.7808947632116 2579.07570363169 78.140543478262  2578.86383957802 
! Port Impedance         50               0                50               0                
54                             0.176745018162393 -21.4075968404648 0.8151193277336  59.1249744058119 0.8151193277336  59.1249744058119 0.176986881509797 -21.4598556134222 
! Gamma         80.0992527869667 2627.68086197482 79.4512140847933 2627.47057320088 
! Port Impedance         50               0                50               0                
55                             0.166293955953917 -25.5145459615055 0.814021890763428 53.6337498830153 0.814021890763428 53.6337498830153 0.166636858702337 -25.4178605213255 
! Gamma         81.4161573673297 2676.29302176586 80.7604881113433 2676.0842850185  
