! Touchstone file exported from HFSS 2024.2.0
!        File:           C:/Users/vaintrug/Documents/Ansoft_Workspace/Comparaison_Calculs_HFSS/1_VarPort.aedt
!        Generated:      03:22:17 PM Jan 21, 2025
!        Design:         1_NoDeembed_FacePortFree
!        Project:        1_VarPort
!        Setup:          Setup1
!        Solution:       Sweep
!
! Variables:
!        $Lenght = 1500um
!        $PortSize = 310um
!        Gap = 30um
!        Th = 2um
!        X_centralStrip = 20um
!        X_masse = 200um
!        Y_Sub = 1.5mm
!        Z_Box = 400um
!        Z_Sub = 200um
!
# GHz S MA R 50.000000
! Terminal data exported
! Port[1] = 1
! Port[2] = 2
1                              0.0199939683988859 61.6052390121061 0.98904894470188 -4.42383347235906 0.989048944701881 -4.42383347235906 0.0199942739505111 61.5833054254045 
! Gamma         6.21177563748304 50.2575573652979 6.21165987939136 50.0629694166343 
! Port Impedance         50               0                50               0                
2                              0.0353923069513533 68.9788398577046 0.986509825269196 -8.74412715087168 0.986509825269197 -8.74412715087169 0.0353910730665673 68.9344875356398 
! Gamma         8.18565990831976 98.9417711433318 8.21523229070781 98.5318255637069 
! Port Impedance         50               0                50               0                
3                              0.0511671743399819 69.6037945500192 0.984066899221552 -13.0681888125159 0.984066899221553 -13.0681888125159 0.0511623051584663 69.5379109223754 
! Gamma         9.72858506376126 147.576880951095 9.76854916911421 146.933099541033 
! Port Impedance         50               0                50               0                
4                              0.0668445962161902 67.9304801485836 0.981406125705027 -17.3911926990638 0.981406125705027 -17.3911926990638 0.0668344732048977 67.8434469667106 
! Gamma         11.1336553034166 196.273679524667 11.1759880548567 195.396158320552 
! Port Impedance         50               0                50               0                
5                              0.082163756714717 65.2392560193844 0.978476628169252 -21.7077503238767 0.978476628169253 -21.7077503238767 0.0821469379958057 65.1311271109348 
! Gamma         12.5071599097777 245.010376941978 12.5487835210665 243.900180395231 
! Port Impedance         50               0                50               0                
6                              0.0969590800051429 62.0250050662961 0.975287963171939 -26.0141071744422 0.975287963171938 -26.0141071744422 0.0969342107686924 61.8957419222174 
! Gamma         13.8854205177845 293.762969521766 13.9250174554298 292.420919576473 
! Port Impedance         50               0                50               0                
7                              0.111108278514814 58.5165025606931 0.971870052962004 -30.3075258059544 0.971870052962004 -30.3075258059544 0.111074087955363 58.3660391756499 
! Gamma         15.2811377892367 342.51551057594  15.3181694136115 340.942153716265 
! Port Impedance         50               0                50               0                
8                              0.124513726474038 54.8335707902059 0.968261945595579 -34.5859866264116 0.968261945595581 -34.5859866264115 0.124469041745149 54.6618300016842 
! Gamma         16.6980925256739 391.257802284262 16.7324117852163 389.453463781378 
! Port Impedance         50               0                50               0                
9                              0.137095062259609 51.0449050422168 0.964507189944504 -38.8480595659534 0.964507189944505 -38.8480595659534 0.13703882377595 50.8518020356838 
! Gamma         18.1362862307641 439.983262428275 18.167955084693  437.948096091534 
! Port Impedance         50               0                50               0                
10                             0.148785737561914 47.1925922989669 0.960651204854656 -43.0928387584468 0.960651204854656 -43.0928387584469 0.148717012256532 46.9780346318587 
! Gamma         19.5939950210646 488.687654311171 19.6231880996252 486.42168070206  
! Port Impedance         50               0                50               0                
11                             0.159531041259042 43.303696273686  0.956739447810154 -47.3198976176156 0.956739447810155 -47.3198976176156 0.159449033218172 43.067583131366  
! Gamma         21.0687019210695 537.368350369546 21.0956513235873 534.871485312933 
! Port Impedance         50               0                50               0                
12                             0.169286698591947 39.3962248289641 0.952816021480987 -51.5292483968053 0.952816021480986 -51.5292483968053 0.169190757193925 39.138446167772  
! Gamma         22.5575695274196 586.023882963089 22.5825314138631 583.295959485982 
! Port Impedance         50               0                50               0                
13                             0.178017707574239 35.4824322584297 0.948922590801945 -55.7213008815703 0.948922590801945 -55.7213008815704 0.177907333445384 35.2028680757353 
! Gamma         24.0577016016312 634.653649610514 24.0809350063906 631.694435146222 
! Port Impedance         50               0                50               0                
14                             0.18569729219951 31.5707636446073 0.945097553130436 -59.896818996886 0.945097553130437 -59.896818996886 0.185572141359292 31.2692834301463 
! Gamma         25.5662957746565 683.25770468515  25.5880488883998 680.066915079762 
! Port Impedance         50               0                50               0                
15                             0.192305937889314 27.6670651911614 0.941375424585233 -64.056875777067 0.941375424585233 -64.056875777067 0.192165824443105 27.3435275147129 
! Gamma         27.0807340745738 731.836602501902 27.1012353681203 728.413913839999 
! Port Impedance         50               0                50               0                
16                             0.197830508619113 23.7753775462026 0.937786411063391 -68.2028075982545 0.937786411063391 -68.2028075982545 0.197675406347437 23.4296298323921 
! Gamma         28.5986345447932 780.391274303358 28.6180873002296 776.736332811233 
! Port Impedance         50               0                50               0                
17                             0.202263455595214 19.8984822486789 0.934356134321377 -72.3361686216844 0.934356134321378 -72.3361686216844 0.202093498735467 19.5303606867934 
! Gamma         30.1178773227007 828.922928703264 30.136456419992  825.035359331689 
! Port Impedance         50               0                50               0                
18                             0.205602128445289 16.0382971395916 0.93110548531042 -76.4586862039505 0.93110548531042 -76.4586862039505 0.205417611920684 15.6476267545976 
! Gamma         31.6366128239001 877.432970632491 31.6544634188749 873.312384416108 
! Port Impedance         50               0                50               0                
19                             0.207848197204171 12.1961774897963 0.92805057962342 -80.5722178014609 0.92805057962342 -80.5722178014609 0.207649576500352 11.782772398388  
! Gamma         33.1532579611483 925.922934929297 33.1704953561919 921.568935237062 
! Port Impedance         50               0                50               0                
20                             0.209007189193451 8.37315827778676 0.92520279348677 -84.6787097013727 0.925202793486769 -84.6787097013727 0.208795080029674 7.93682214259187 
! Gamma         34.6664839708819 974.39443257072  34.6831944494478 969.806620369833 
! Port Impedance         50               0                50               0                
21                             0.209088141363238 4.57016125947156 0.922568862660806 -88.7801577213476 0.922568862660806 -88.7801577213476 0.208863319261683 4.11068800758382 
! Gamma         36.1751988552439 1022.84910750103 36.1914412690145 1018.02708572334 
! Port Impedance         50               0                50               0                
22                             0.208103365235186 0.788184079569698 0.920151030752549 -92.8785699309734 0.920151030752548 -92.8785699309734 0.207866765047659 0.305358961711478 
! Gamma         37.6785268395266 1071.28860264974 37.6943345232728 1066.23197975279 
! Port Impedance         50               0                50               0                
23                             0.206068319125897 -2.97151437176599 0.917947237333991 -96.9759313632925 0.917947237333991 -96.9759313632925 0.205821034541409 -3.4779132835552 
! Gamma         39.1757860699107 1119.71453370663 39.1911691609904 1114.42292646749 
! Port Impedance         50               0                50               0                
24                             0.203001580361403 -6.70721889522125 0.915951339776485 -101.074170687522 0.915951339776486 -101.074170687522 0.202744863394348 -7.2374186120753 
! Gamma         40.6664661873832 1168.12846958299 40.6814140166299 1162.60150522917 
! Port Impedance         50               0                50               0                
25                             0.198924909014686 -10.4165383598174 0.914153365652363 -105.175128809228 0.914153365652363 -105.175128809228 0.198660169462104 -10.9707680545114 
! Gamma         42.1502063321448 1216.53191830067 42.1646898792203 1210.76923610526 
! Port Impedance         50               0                50               0                
26                             0.193863393728975 -14.0961430079652 0.912539794959986 -109.28052943847 0.912539794959987 -109.28052943847 0.193592198581999 -14.674629960962 
! Gamma         43.6267743052572 1264.92631740246 43.6407486236725 1258.92756975466 
! Port Impedance         50               0                50               0                
27                             0.18784567045854 -17.7414333445975 0.911093873048858 -113.391951697816 0.911093873048858 -113.391951697816 0.187569743277383 -18.3443972869924 
! Gamma         45.0960472467382 1313.31302812364 45.1094537678812 1307.07788119119 
! Port Impedance         50               0                50               0                
28                             0.180904205674986 -21.3461036282286 0.909795956185796 -117.51080495125 0.909795956185796 -117.51080495125 0.180625425984276 -21.9737488186628 
! Gamma         46.5579940106548 1361.69333242786 46.5707627110094 1355.22146644556 
! Port Impedance         50               0                50               0                
29                             0.173075638488696 -24.9015433987183 0.908623891959719 -121.638306086014 0.908623891959719 -121.638306086014 0.172796041357291 -25.5540473755027 
! Gamma         48.0126593250688 1410.06843227658 48.0247107371154 1403.35954158489 
! Port Impedance         50               0                50               0                
30                             0.164401181587509 -28.3959870686836 0.907553436380712 -125.775459576007 0.907553436380711 -125.775459576007 0.164122957713884 -29.0734845293377 
! Gamma         49.4601497614119 1458.43945073389 49.4713968059038 1451.4932435747  
! Port Impedance         50               0                50               0                
31                             0.154927092005287 -31.8132634879397 0.906558708451381 -129.923040707786 0.90655870845138 -129.923040707786 0.15465258894269 -32.5158227731472 
! Gamma         50.9006214655687 1506.8074342912  50.9109710639245 1499.62363242277 
! Port Impedance         50               0                50               0                
32                             0.14470524360852 -35.1308926192492 0.90561268135185 -134.081582403093 0.90561268135185 -134.081582403093 0.144436969264812 -35.8584807979828 
! Gamma         52.3342694432821 1555.17335612824 52.3436240022988 1547.75169431909 
! Port Impedance         50               0                50               0                
33                             0.133793873774764 -38.3170807507646 0.90468770717754 -138.251366095258 0.904687707177539 -138.251366095258 0.133534504256642 -39.0695105310523 
! Gamma         53.7613184464502 1603.53811999322 53.7695771069513 1595.87834542985 
! Port Impedance         50               0                50               0                
34                             0.122258657482083 -41.3257828595143 0.903756069566835 -142.432417104584 0.903756069566834 -142.432417104584 0.122011053021017 -42.1026297604938 
! Gamma         55.182015129832  1651.90256452061 55.1890749051645 1644.00443611309 
! Port Impedance         50               0                50               0                
35                             0.110174430364344 -44.0882132458203 0.902790555728194 -146.624504919217 0.902790555728193 -146.624504919217 0.109941666298917 -44.8886823469264 
! Gamma         56.596621527008  1700.26746765028 56.6023782270524 1692.13075532803 
! Port Impedance         50               0                50               0                
36                             0.097628255554249 -46.4974664779821 0.901765036515662 -150.827148702191 0.901765036515661 -150.827148702191 0.097413681919746 -47.3201706004686 
! Gamma         58.0054095205963 1748.63355117884 58.0097585736625 1740.25803517218 
! Port Impedance         50               0                50               0                
37                             0.0847254214540248 -48.378896953726 0.900655040583559 -155.039628229824 0.900655040583559 -155.039628229824 0.0845327788584722 -49.2214742826584 
! Gamma         59.408656302142  1797.00148525668 59.4114934477676 1788.38695536859 
! Port Impedance         50               0                50               0                
38                             0.0716022920832229 -49.4288054501431 0.899438306520279 -159.26100030163 0.89943830652028 -159.26100030163 0.0714359440481257 -50.28724222791  
! Gamma         60.806640678055  1845.37189271892 60.80786251697   1836.51814758303 
! Port Impedance         50               0                50               0                
39                             0.0584567175500583 -49.076566069254 0.898095295523688 -163.490120488018 0.898095295523688 -163.490120488018 0.0583221370679693 -49.9440159072682 
! Gamma         62.1996400364911 1893.74535327922 62.1991445076743 1884.65219969488 
! Port Impedance         50               0                50               0                
40                             0.0456288347829885 -46.1475375655718 0.896609646806103 -167.725669869562 0.896609646806103 -167.725669869562 0.0455336545138696 -47.0127245025109 
! Gamma         63.587927975027  1942.12240750362 63.5856147184682 1932.78965973439 
! Port Impedance         50               0                50               0                
41                             0.0338433799460056 -38.0189665380525 0.89496855869633 -171.966186216176 0.89496855869633 -171.966186216176 0.0337993802705815 -38.8686398501441 
! Gamma         64.9717724019707 1990.50356049667 64.9675430647669 1980.93103963291 
! Port Impedance         50               0                50               0                
42                             0.0249430463891185 -19.3371842179145 0.893163080350419 -176.210098862851 0.893163080350419 -176.210098862851 0.0249650282706921 -20.1991090155384 
! Gamma         66.3514341171496 2038.88928538823 66.3451925703354 2029.07681876091 
! Port Impedance         50               0                50               0                
43                             0.0227487580095175 11.5989938918471 0.89118830201228 179.544233641647 0.89118830201228 179.544233641647 0.022820570821481 10.5548849814546 
! Gamma         67.727165712376  2087.28002655144 67.7188182361509 2077.22744714062 
! Port Impedance         50               0                50               0                
44                             0.0287550564474078 37.1676808608092 0.88904343570927 175.29848416393  0.889043435709271 175.29848416393  0.0288124359165944 35.9240165221594 
! Gamma         69.0992108427238 2135.67620255324 69.0886662274867 2125.38334848108 
! Port Impedance         50               0                50               0                
45                             0.0391927522185547 49.6238651546871 0.886731782838907 171.054317031802 0.886731782838906 171.054317031802 0.0392051485361872 48.2992654544407 
! Gamma         70.4678036846479 2184.0782088711  70.4549733166382 2173.54492290772 
! Port Impedance         50               0                50               0                
46                             0.0512050550749661 54.6426327032525 0.884260589985404 166.813348665525 0.884260589985404 166.813348665525 0.0511669083810398 53.2760570657033 
! Gamma         71.8331686453124 2232.48642041251 71.8179665447243 2221.71254951796 
! Port Impedance         50               0                50               0                
47                             0.0636629079052536 56.0846789143668 0.88164079914799 162.577109949326 0.881640799147991 162.577109949326 0.0635727299650826 54.6816286742209 
! Gamma         73.1955202251263 2280.90119375547 73.1778630609415 2269.88658865764 
! Port Impedance         50               0                50               0                
48                             0.0760932124154799 55.6752012839892 0.878886703025063 158.347011402158 0.878886703025062 158.347011402158 0.0759495683469511 54.2336936457212 
! Gamma         74.5550630226706 2329.32286920624 74.5348700960181 2318.06738403832 
! Port Impedance         50               0                50               0                
49                             0.088252191150882 54.215863690646  0.876015519736555 154.124312098352 0.876015519736555 154.124312098352 0.0880532886743032 52.7324500105476 
! Gamma         75.9119918465679 2377.75177267141 75.8891850571914 2366.25526461845 
! Port Impedance         50               0                50               0                
50                             0.0999885276975106 52.1155511514367 0.873046904144962 149.910093103164 0.873046904144963 149.910093103164 0.0997322810717816 50.5865981429702 
! Gamma         77.2664918997412 2426.18821736535 77.2409957075108 2414.45054635513 
! Port Impedance         50               0                50               0                
51                             0.111194889639869 49.6014290767555 0.870002414567495 145.70523599636  0.870002414567495 145.70523599636  0.1108790050975  48.0233415111545 
! Gamma         78.61873907182   2474.63250532384 78.5904804169934 2462.65353374798 
! Port Impedance         50               0                50               0                
52                             0.121788475925044 46.8089332020799 0.866904954129828 141.510406846707 0.866904954129828 141.510406846707 0.121410506791279 45.1781349782615 
! Gamma         79.9689002152195 2523.08492877945 79.9378084655934 2510.8645212267  
! Port Impedance         50               0                50               0                
53                             0.131702301978766 43.823580354523  0.863778205349756 137.326045787421 0.863778205349757 137.326045787421 0.131259676835094 42.1364455877832 
! Gamma         81.3171335215343 2571.54577141727 81.2831403827171 2559.083794461   
! Port Impedance         50               0                50               0                
54                             0.140880893579669 40.7019653565779 0.860646074938358 133.152362145623 0.860646074938359 133.152362145623 0.140370925082111 38.9547447107755 
! Gamma         82.6635888853596 2620.01530947804 82.6266283172543 2607.31163146993 
! Port Impedance         50               0                50               0                
55                             0.149277946677847 37.4830326575693 0.85753216349338 128.989334913911 0.857532163493381 128.989334913911 0.148697826423371 35.6717834577537 
! Gamma         84.0084082872421 2668.49381278024 83.9684164248386 2655.54830366478 
