! Touchstone file exported from HFSS 2024.2.0
!        File:           C:/Users/vaintrug/Documents/Ansoft_Workspace/Comparaison_Calculs_HFSS/1_VarPort.aedt
!        Generated:      03:22:16 PM Jan 21, 2025
!        Design:         1_NoDeembed_FacePortFree
!        Project:        1_VarPort
!        Setup:          Setup1
!        Solution:       Sweep
!
! Variables:
!        $Lenght = 1500um
!        $PortSize = 170um
!        Gap = 30um
!        Th = 2um
!        X_centralStrip = 20um
!        X_masse = 200um
!        Y_Sub = 1.5mm
!        Z_Box = 400um
!        Z_Sub = 200um
!
# GHz S MA R 50.000000
! Terminal data exported
! Port[1] = 1
! Port[2] = 2
1                              0.0209874529193389 62.8652478863312 0.989101219482744 -4.43228973850569 0.989101219482745 -4.43228973850569 0.020985161953814 62.8854372749732 
! Gamma         5.77653991860798 49.871964632821  5.83298089869528 49.9962219539307 
! Port Impedance         50               0                50               0                
2                              0.0375673543405495 69.7118234196675 0.986562168437803 -8.76412156224584 0.986562168437803 -8.76412156224584 0.0375687384298192 69.7517140320272 
! Gamma         7.52665678250879 98.4212854487837 7.63146592989124 98.6349713050122 
! Port Impedance         50               0                50               0                
3                              0.0544908577906612 70.0077484773681 0.98406062052802 -13.0994853759832 0.98406062052802 -13.0994853759832 0.0544977151337157 70.0628259998204 
! Gamma         8.92880782519008 147.010992237658 9.06648930541165 147.288252888944 
! Port Impedance         50               0                50               0                
4                              0.0712736747657869 68.1288440717064 0.981299738983524 -17.4327565438542 0.981299738983524 -17.4327565438542 0.0712868456688511 68.199289623843  
! Gamma         10.2494193580718 195.666739335179 10.4071995059515 196.00533657082  
! Port Impedance         50               0                50               0                
5                              0.0876540415713999 65.2975943052512 0.978236584267611 -21.7582865210229 0.978236584267611 -21.7582865210229 0.0876745009052618 65.3839931705212 
! Gamma         11.5613216798865 244.353376853017 11.7338960303381 244.754809706324 
! Port Impedance         50               0                50               0                
6                              0.103463447250354 61.9806390797473 0.974886427265497 -26.0721008469945 0.974886427265498 -26.0721008469945 0.103492271994698 62.0835779945549 
! Gamma         12.8860706192025 293.048747855097 13.0713717935012 293.514337412775 
! Port Impedance         50               0                50               0                
7                              0.118575895943751 58.3925267082197 0.971284594093485 -30.3712707855533 0.971284594093485 -30.3712707855533 0.11861421590191 58.5125964949641 
! Gamma         14.2301745648231 341.740026722163 14.4274977794187 342.270544008847 
! Port Impedance         50               0                50               0                
8                              0.132890176845986 54.6453375460195 0.967475581709657 -34.6536238699538 0.967475581709657 -34.6536238699539 0.1329391490907  54.7831633532531 
! Gamma         15.5947854411959 390.419428890745 15.8040321806157 391.015200143632 
! Port Impedance         50               0                50               0                
9                              0.146322861588375 50.8032294647538 0.963508429083612 -38.9176212027373 0.963508429083613 -38.9176212027374 0.146383657921506 50.9594951899383 
! Gamma         16.9788377854537 439.082039805957 17.2001855060374 439.743072958498 
! Port Impedance         50               0                50               0                
10                             0.158804996913965 46.9054456117629 0.959433989767715 -43.162294199385 0.959433989767716 -43.162294199385 0.158878798151694 47.0809129660915 
! Gamma         18.3802708025864 487.724740437726 18.614015080855  488.450819794193 
! Port Impedance         50               0                50               0                
11                             0.170280143931564 42.9771520853381 0.955302986564699 -47.3871993030917 0.955302986564699 -47.3871993030917 0.170368138270007 43.1726771014182 
! Gamma         19.7965878497055 536.345636209237 20.0430614780164 537.136389160613 
! Port Impedance         50               0                50               0                
12                             0.180702923250134 39.0350109561472 0.951164513302033 -51.5923755141919 0.951164513302033 -51.5923755141919 0.180806307516593 39.2515598548132 
! Gamma         21.2251490917131 584.943721746524 21.4846788263789 585.798666273642 
! Port Impedance         50               0                50               0                
13                             0.190037759533031 35.0902626665158 0.947064866324589 -55.7782999211655 0.947064866324589 -55.7782999211655 0.190157742847119 35.328928462524  
! Gamma         22.6633398097821 633.518662227615 22.9362230623027 634.437241577354 
! Port Impedance         50               0                50               0                
14                             0.198257723985954 31.1505419856535 0.943046650985333 -59.9458404598858 0.943046650985333 -59.9458404598858 0.198395533698021 31.4125628035347 
! Gamma         24.1086720612427 682.070637224589 24.395164821063  683.05224569475  
! Port Impedance         50               0                50               0                
15                             0.205343453372561 27.2210102870719 0.939148125152897 -64.096206641933 0.939148125152897 -64.096206641933 0.205500343337487 27.507790241832  
! Gamma         25.5588461358933 730.600220561423 25.859157559518  731.644223116839 
! Port Impedance         50               0                50               0                
16                             0.21128215326773 23.3050996391465 0.935402745423177 -68.2308994341541 0.935402745423177 -68.2308994341541 0.211459414634751 23.6182331339047 
! Gamma         27.0117854358134 779.10828399486  27.3260765164156 780.214031226924 
! Port Impedance         50               0                50               0                
17                             0.216066701679106 19.4050269609035 0.931838882638092 -72.3516613780318 0.931838882638092 -72.3516613780318 0.216265676480588 19.7463273474049 
! Gamma         28.4656528761984 827.59591794653  28.7940375874477 828.762757563451 
! Port Impedance         50               0                50               0                
18                             0.219694867791616 15.5221672577169 0.928479675050246 -76.4604278261244 0.928479675050246 -76.4604278261243 0.219916965722063 15.8937010074006 
! Gamma         29.9188540821208 876.064365947974 30.2614020703093 877.2916515702   
! Port Impedance         50               0                50               0                
19                             0.222168656503432 11.6573385615583 0.925342990389805 -80.5592798740473 0.925342990389805 -80.5592798740473 0.222415375415529 12.0614663531892 
! Gamma         31.3700312867213 924.514970492894 31.7267714350652 925.802068246202 
! Port Impedance         50               0                50               0                
20                             0.22349378423075 7.81103134670341 0.922441472179189 -84.6503993310751 0.92244147217919 -84.6503993310751 0.223766735059461 8.25045788716108 
! Gamma         32.8180508071076 972.949128785279 33.1889752818908 974.295422236467 
! Port Impedance         50               0                50               0                
21                             0.223679287128449 3.98360426470724 0.919782650230513 -88.7360258525424 0.919782650230512 -88.7360258525424 0.223980224201856 4.46143918490905 
! Gamma         34.2619863758196 1021.36825725992 34.6470548361163 1022.77315090051 
! Port Impedance         50               0                50               0                
22                             0.22273725884713 0.175462021555099 0.917369100127991 -92.818416246864 0.917369100127991 -92.818416246864 0.22306811689998 0.695294959176844 
! Gamma         35.7011000915421 1069.77376354249 36.1002438926949 1071.23668519273 
! Port Impedance         50               0                50               0                
23                             0.22068271228509 -3.61277165168682 0.915198641053224 -96.8998058725453 0.915198641053225 -96.8998058725453 0.221045651972377 -3.04677767588332 
! Gamma         37.1348222981252 1118.16702499751 37.5479485353924 1119.68742728749 
! Port Impedance         50               0                50               0                
24                             0.217533557367929 -7.38007383426133 0.913264565544555 -100.982372038024 0.913264565544554 -100.982372038024 0.21793102178417 -6.76306513448692 
! Gamma         38.562731394981  1166.54937276238 38.989726723182  1168.12673389143 
! Port Impedance         50               0                50               0                
25                             0.21331068546836 -11.1248218242109 0.911555898332587 -105.068199322064 0.911555898332586 -105.068199322064 0.213745471164032 -10.4511052468663 
! Gamma         39.9845342750826 1214.92208050527 40.4252684541464 1216.55590439773 
! Port Impedance         50               0                50               0                
26                             0.208038149875032 -14.8445558531009 0.910057684329453 -109.15924679952 0.910057684329454 -109.15924679952 0.20851349732345 -14.107407824957 
! Gamma         41.4000479171753 1263.28635685495 41.8543770172661 1264.97617292908 
! Port Impedance         50               0                50               0                
27                             0.201743431280479 -18.5356829510537 0.908751307996892 -113.257317225866 0.908751307996893 -113.257317225866 0.202263141895534 -17.7271014408557 
! Gamma         42.8091823465126 1311.64334107778 43.2769516533876 1313.38870358574 
! Port Impedance         50               0                50               0                
28                             0.194457777398661 -22.1930898100446 0.907614847731148 -117.364028339264 0.90761484773115 -117.364028339264 0.195026367466408 -21.3034677817602 
! Gamma         44.2119252150387 1359.99410107236 44.6929718150136 1361.79458825376 
! Port Impedance         50               0                50               0                
29                             0.186216607463146 -25.8096155196289 0.906623469468504 -121.480786534699 0.906623469468504 -121.480786534699 0.186839514381337 -24.8273046932265 
! Gamma         45.6083280000152 1408.33963334825 46.1024830437972 1410.19484635746 
! Port Impedance         50               0                50               0                
30                             0.17705997628826 -29.3753061581229 0.905749863476293 -125.608763268118 0.905749863476293 -125.608763268118 0.177743840496383 -28.2860247876617 
! Gamma         46.9984938363034 1456.68086439887 47.5055845182398 1458.59042610621 
! Port Impedance         50               0                50               0                
31                             0.167033100783133 -32.8763227475394 0.904964727252887 -129.748874647472 0.904964727252887 -129.748874647472 0.167786159796143 -31.6623373312661 
! Gamma         48.3825668910094 1505.01865315782 48.902418155957  1506.98220686816 
! Port Impedance         50               0                50               0                
32                             0.156186968563797 -36.2932829720428 0.904237295576985 -133.901764736442 0.904237295576985 -133.901764736442 0.157019621372132 -34.9322557811931 
! Gamma         49.7607231981162 1553.3537941372  50.2931591958058 1555.37100227465 
! Port Impedance         50               0                50               0                
33                             0.144579081105156 -39.5986464555471 0.903535916177255 -138.067793152532 0.903535916177255 -138.067793152532 0.145504719244367 -38.0619786102079 
! Gamma         51.1331628236004 1601.68702109572 51.6780081348698 1603.75756387878 
! Port Impedance         50               0                50               0                
34                             0.132274450397063 -42.7524184912706 0.902828666277653 -142.24702754621 0.902828666277652 -142.24702754621 0.133310720578969 -41.002816255266 
! Gamma         52.5001032255865 1650.01901098071 53.0571838874288 1652.14258508581 
! Port Impedance         50               0                50               0                
35                             0.119347107489541 -45.6947544886093 0.902084001665369 -146.439241532075 0.902084001665368 -146.439241532075 0.120517899717881 -43.6825801685588 
! Gamma         53.8617736931892 1698.35038798449 54.430918039128  1700.52670526394 
! Port Impedance         50               0                50               0                
36                             0.105882692287868 -48.3325228524283 0.901271426107394 -150.643918554012 0.901271426107394 -150.643918554012 0.107221401055778 -45.9902382088483 
! Gamma         55.2184107218703 1746.68172761865 55.7994500649666 1748.91051384597 
! Port Impedance         50               0                50               0                
37                             0.0919834417832036 -50.5132767503133 0.900362165274217 -154.860262045985 0.900362165274217 -154.860262045985 0.093538569470587 -47.7470002863779 
! Gamma         56.5702542131175 1795.01356070255 57.1630233876427 1797.29455437904 
! Port Impedance         50               0                50               0                
38                             0.0777788714870837 -51.9707992498493 0.899329826136652 -159.087212072907 0.899329826136653 -159.087212072907 0.0796241530972498 -48.6482581212452 
! Gamma         57.9175443905505 1843.34637722617 58.5218821702683 1845.67932844609 
! Port Impedance         50               0                50               0                
39                             0.0634513127296789 -52.2000980989942 0.898151020465149 -163.32346841756 0.898151020465148 -163.32346841756 0.0657048750878192 -48.1387238780355 
! Gamma         59.2605193211145 1891.68063002753 59.8762687291377 1894.06529939711 
! Port Impedance         50               0                50               0                
40                             0.049305428230904 -50.1380929176614 0.896805929882273 -167.567519827171 0.896805929882274 -167.567519827172 0.0521662612591192 -45.1279191678252 
! Gamma         60.5994129546643 1940.01673823803 61.2264214923323 1942.45289586487 
! Port Impedance         50               0                50               0                
41                             0.0359889451499451 -43.2710579939579 0.895278790203442 -171.817678873315 0.895278790203443 -171.817678873315 0.039790933242425 -37.360707898005 
! Gamma         61.9344536169135 1988.35509052047 62.572573404211  1990.84251508501 
! Port Impedance         50               0                50               0                
42                             0.0252738921003177 -25.5386884850815 0.893558274621806 -176.072121610838 0.893558274621805 -176.072121610838 0.0303852995719688 -20.7314686096529 
! Gamma         63.2658628564332 2036.69604807733 63.9149507142176 2039.23452594099 
! Port Impedance         50               0                50               0                
43                             0.0216954439391217 8.38893713568324 0.891637758681112 179.671069014603 0.891637758681111 179.671069014603 0.0273882384593788 6.07491179016516 
! Gamma         64.5938546100635 2085.03994740136 65.2537720884387 2087.62927180402 
! Port Impedance         50               0                50               0                
44                             0.0280804882748168 37.7827256546028 0.889515454726163 175.413857249127 0.889515454726162 175.413857249127 0.0325791087805945 30.4473595270398 
! Gamma         65.9186346199862 2133.38710283805 66.5892479780465 2136.02707313626 
! Port Impedance         50               0                50               0                
45                             0.0397299003122334 51.0833753844889 0.887194409291005 171.15820749352  0.887194409291005 171.15820749352  0.0429341968662266 43.9028439112699 
! Gamma         67.2404000649388 2181.73780888068 67.9215802161321 2184.42822986498 
! Port Impedance         50               0                50               0                
46                             0.0530653836939009 55.9991410040709 0.884682363266479 166.906037580145 0.884682363266479 166.906037580145 0.0554198047105655 49.9032825247262 
! Gamma         68.5593393593554 2230.0923422987  69.2509617843185 2232.83302355089 
! Port Impedance         50               0                50               0                
47                             0.0668301585873056 57.1867452298523 0.881991481130032 162.659173807836 0.881991481130031 162.659173807836 0.0686352063402958 52.0199094966244 
! Gamma         69.875632091537  2278.45096404404 70.5775767308073 2281.24171935948 
! Port Impedance         50               0                50               0                
48                             0.0805348574410388 56.5314024073782 0.879137961535791 158.419309071573 0.879137961535792 158.419309071573 0.0819638686846252 52.0605602188145 
! Gamma         71.1894490737826 2326.81392098922 71.9016001976977 2329.65456783594 
! Port Impedance         50               0                50               0                
49                             0.0939333846009143 54.860051615793  0.876141546654035 154.187965281984 0.876141546654035 154.187965281984 0.0950894811517112 50.9073283837438 
! Gamma         72.5009524770984 2375.18144748765 73.2231985477858 2378.07180652194 
! Port Impedance         50               0                50               0                
50                             0.106872656237805 52.5800821633685 0.87302495145196 149.966461051291 0.87302495145196 149.966461051291 0.107820582909017 49.019821598417  
! Gamma         73.810296036765  2423.55376678405 74.5425295520893 2426.49366139999 
! Port Impedance         50               0                50               0                
51                             0.1192427926901  49.9128200098024 0.869813236385212 145.755885370805 0.869813236385212 145.755885370805 0.120025250882563 46.6559280390063 
! Gamma         75.1176253071965 2471.93109226915 75.8597426427835 2474.92034820354 
! Port Impedance         50               0                50               0                
52                             0.130957951192171 46.9882074911935 0.866533147657052 141.557077741601 0.866533147657052 141.557077741601 0.131604261545311 43.9700869592175 
! Gamma         76.4230779542432 2520.31362862718 77.174979199316  2523.35207358164 
! Port Impedance         50               0                50               0                
53                             0.141947971420502 43.8873766055723 0.863212448395931 137.370614949185 0.863212448395931 137.370614949185 0.142478912034609 41.059951622141  
! Gamma         77.7267840725272 2568.70157283609 78.4883728642059 2571.78903614679 
! Port Impedance         50               0                50               0                
54                             0.152154309931186 40.6635466478745 0.859879262008833 133.196804427998 0.859879262008833 133.196804427998 0.152584957958796 37.9901031170715 
! Gamma         79.0288665244859 2617.09511509011 79.8000498826511 2620.23142741696 
! Port Impedance         50               0                50               0                
55                             0.161527831312569 37.3530566968543 0.856561445942025 129.035683944484 0.856561445942025 129.035683944484 0.161869307734021 34.804865781997  
! Gamma         80.3294412867705 2665.49443959157 81.1101294450817 2668.67943265338 
