! Touchstone file exported from HFSS 2024.2.0
!        File:           C:/Users/vaintrug/Documents/Ansoft_Workspace/Comparaison_Calculs_HFSS/1_VarPort.aedt
!        Generated:      03:22:18 PM Jan 21, 2025
!        Design:         1_NoDeembed_FacePortFree
!        Project:        1_VarPort
!        Setup:          Setup1
!        Solution:       Sweep
!
! Variables:
!        $Lenght = 2000um
!        $PortSize = 180um
!        Gap = 30um
!        Th = 2um
!        X_centralStrip = 20um
!        X_masse = 200um
!        Y_Sub = 2mm
!        Z_Box = 400um
!        Z_Sub = 200um
!
# GHz S MA R 50.000000
! Terminal data exported
! Port[1] = 1
! Port[2] = 2
1                              0.0284276095701665 61.8497532116918 0.9854217082062  -5.91071284288209 0.985421708206198 -5.91071284288209 0.028428433154494 61.8457291376456 
! Gamma         5.94250501048629 50.0223455663939 5.93728230311592 49.8481614747137 
! Port Impedance         50               0                50               0                
2                              0.0508573269332957 67.048152931596  0.981801448826164 -11.6823850563566 0.981801448826165 -11.6823850563566 0.0508554146906503 67.0412430307918 
! Gamma         7.78315254181693 98.6023245582073 7.66995384589101 98.3500654637271 
! Port Impedance         50               0                50               0                
3                              0.073458361683111 65.8384942799486 0.978118887558062 -17.4538164497291 0.978118887558063 -17.4538164497291 0.0734529752516117 65.8310926963116 
! Gamma         9.2379696839943  147.195406812637 9.06485479973919 146.907996578573 
! Port Impedance         50               0                50               0                
4                              0.0954881072843464 62.5152211234984 0.974000922789499 -23.2150237036943 0.974000922789499 -23.2150237036943 0.0954793107246358 62.5075155606905 
! Gamma         10.5908121963533 195.854467631538 10.3818006740971 195.533772023299 
! Port Impedance         50               0                50               0                
5                              0.11650416577852 58.2784235273765 0.969431528658373 -28.9564162123374 0.969431528658372 -28.9564162123374 0.116491998675992 58.270519796177  
! Gamma         11.9267878494093 244.547818393453 11.6918732015926 244.190807409832 
! Port Impedance         50               0                50               0                
6                              0.136203555947862 53.5876989649008 0.964481197379269 -34.6713668725379 0.964481197379269 -34.671366872538 0.136188053964305 53.5798396643548 
! Gamma         13.2727711712634 293.252384369025 13.0160093931882 292.85649620776  
! Port Impedance         50               0                50               0                
7                              0.154357851229639 48.6551137306271 0.959250905001633 -40.3554595204171 0.959250905001634 -40.3554595204171 0.154339097757386 48.6476859776708 
! Gamma         14.637536184134  341.954117789088 14.3603724793753 341.517810447646 
! Port Impedance         50               0                50               0                
8                              0.170789857659553 43.5915462931547 0.953853304249313 -46.0061224196534 0.953853304249314 -46.0061224196534 0.170768021391618 43.5850788855445 
! Gamma         16.0232062912258 390.644293777177 15.725881070349  390.166873023543 
! Port Impedance         50               0                50               0                
9                              0.185363204700013 38.46009880805   0.948402894901827 -51.62242965101  0.948402894901828 -51.62242965101  0.185338568753909 38.4552677125102 
! Gamma         17.4291076714138 439.317337853821 17.111300418988  438.798732482699 
! Port Impedance         50               0                50               0                
10                             0.197975993104339 33.2987211915311 0.943009459085124 -57.2049372909183 0.943009459085124 -57.2049372909183 0.197948980751938 33.2963636953709 
! Gamma         18.8532954584773 487.969678375264 18.514442131671  487.410262636219 
! Port Impedance         50               0                50               0                
11                             0.208555778199313 28.1309777551573 0.937773328580317 -62.7555106810215 0.937773328580318 -62.7555106810215 0.208526978228678 28.1321147723603 
! Gamma         20.2932515733734 536.599114736135 19.9327107484063 535.999577938295 
! Port Impedance         50               0                50               0                
12                             0.217055117731395 22.9717004491895 0.932782017169782 -68.277134377519 0.932782017169782 -68.2771343775191 0.217025311514045 22.9775675103566 
! Gamma         21.7462459922093 585.204439999459 21.3633884024127 584.565691221188 
! Port Impedance         50               0                50               0                
13                             0.223447560463843 17.8302356847917 0.928107974698463 -73.7737087325384 0.928107974698463 -73.7737087325384 0.223417752473988 17.8423240637119 
! Gamma         23.2095409487591 633.785193896928 22.8037979209685 633.108291292719 
! Port Impedance         50               0                50               0                
14                             0.22772414927685 12.7124799312367 0.923807265508102 -79.2498403069798 0.923807265508103 -79.2498403069798 0.227695602870703 12.7325905014914 
! Gamma         24.680512518051  682.341486882817 24.251401080302  681.62758428319  
! Port Impedance         50               0                50               0                
15                             0.229890544822536 7.62227753322432 0.919918987126596 -84.7106329226585 0.919918987126596 -84.7106329226585 0.229864825444956 7.65259128550822 
! Gamma         26.1567239351373 730.873866063169 25.7038576061082 730.12417219489  
! Port Impedance         50               0                50               0                
16                             0.229964849508303 2.56248038532806 0.916465262863305 -90.1614844939732 0.916465262863305 -90.1614844939731 0.229943878185092 2.60565136479407 
! Gamma         27.6359672224664 779.383208349552 27.1590583531456 778.598955432051 
! Port Impedance         50               0                50               0                
17                             0.227976169066485 -2.46415555583178 0.91345167022988 -95.6078929862351 0.91345167022988 -95.6078929862351 0.227962290189331 -2.4048764678656 
! Gamma         29.1162835809027 827.870633183041 28.6151402873808 827.053052927062 
! Port Impedance         50               0                50               0                
18                             0.223963907416455 -7.45411569964279 0.910868002510467 -101.055273435362 0.910868002510467 -101.055273435362 0.223959976710211 -7.37471364946925 
! Gamma         30.595968893467  876.337430799854 30.0704886087596 875.487736043789 
! Port Impedance         50               0                50               0                
19                             0.217977756594937 -12.4022066350758 0.908689297875053 -106.508787094732 0.908689297875052 -106.508787094732 0.217987258223453 -12.2976733987219 
! Gamma         32.0735683146194 924.785002902937 31.5237297452698 923.904374052157 
! Port Impedance         50               0                50               0                
20                             0.210078318439526 -17.3004451655157 0.906877104492931 -111.973183515032 0.906877104492933 -111.973183515032 0.210105525293292 -17.1644583063927 
! Gamma         33.5478641240657 973.214814697321 32.973718070826  972.30438973176  
! Port Impedance         50               0                50               0                
21                             0.200338280799315 -22.1365763299155 0.905380977236792 -117.452656586786 0.905380977236792 -117.452656586786 0.200388480698618 -21.9610406186106 
! Gamma         35.0178586633557 1021.62835600814 34.4195185979319 1020.68922367986 
! Port Impedance         50               0                50               0                
22                             0.188844072535997 -26.8919232342673 0.904140219265351 -122.950716216089 0.904140219265351 -122.950716216089 0.188923898399463 -26.6662987419548 
! Gamma         36.4827545192413 1070.02711077038 35.8603873982964 1069.06030621065 
! Port Impedance         50               0                50               0                
23                             0.175697952674962 -31.5380338937909 0.903085888017029 -128.470078110708 0.903085888017028 -128.470078110708 0.175815882773985 -31.2483233010627 
! Gamma         37.9419336134946 1118.41253369172 37.295751011866  1117.4190359203  
! Port Impedance         50               0                50               0                
24                             0.161020581255213 -36.0310945496384 0.902143079265018 -134.012575027013 0.902143079265019 -134.012575027013 0.16118772959794 -35.6582669940675 
! Gamma         39.3949358654302 1166.78603259263 38.7251858698128 1165.76676369135 
! Port Impedance         50               0                50               0                
25                             0.144954353616354 -40.3019868942958 0.901233484782539 -139.579093498492 0.901233484782539 -139.579093498492 0.145185779829531 -39.8194348610463 
! Gamma         40.8414386633255 1215.14895608358 40.148398419443  1214.10478147562 
! Port Impedance         50               0                50               0                
26                             0.127668366567331 -44.2372821014618 0.900278190465739 -145.169540383393 0.900278190465739 -145.169540383393 0.127985370860277 -43.6065555218887 
! Gamma         42.2812373501862 1263.50258511144 41.5652064061851 1262.43431483802 
! Port Impedance         50               0                50               0                
27                             0.109367446010112 -47.6397783007897 0.899200645417114 -150.782843341756 0.899200645417115 -150.782843341756 0.109801863702705 -46.8031597811968 
! Gamma         43.7142271875998 1311.84812798938 42.9755216243872 1310.75651861445 
! Port Impedance         50               0                50               0                
28                             0.0903122833687442 -50.1379059725412 0.897929693285937 -156.416988445193 0.897929693285937 -156.416988445193 0.0909151740823841 -49.0052799206421 
! Gamma         45.1403869570421 1360.18671804295 44.3793342796573 1359.07247506326 
! Port Impedance         50               0                50               0                
29                             0.070873571577111 -50.9500155199554 0.896402521435728 -162.06909654303 0.896402521435729 -162.06909654303 0.0717344067283133 -49.3778064090464 
! Gamma         46.5597642810938 1408.51941330601 45.7766990270721 1407.38319385827 
! Port Impedance         50               0                50               0                
30                             0.0517087576779159 -48.1715364264227 0.894567358031373 -167.73553777023 0.894567358031374 -167.73553777023 0.0530005244445133 -45.9579405730715 
! Gamma         47.9724626409278 1456.84719777279 47.1677226486966 1455.68961357876 
! Port Impedance         50               0                50               0                
31                             0.0344809549602292 -36.3760746459645 0.892385738483688 -173.412080949614 0.892385738483688 -173.412080949614 0.0365407294350645 -33.619459588818 
! Gamma         49.3786300247108 1505.17098384067 48.552553316701  1503.9926042088  
! Port Impedance         50               0                50               0                
32                             0.0247593153113618 -3.5163245483909 0.889834175104456 -179.094071844455 0.889834175104456 -179.094071844455 0.0277202891111049 -3.24609518731062 
! Gamma         50.7784491154962 1553.49161554157 49.9313713220476 1552.29297038075 
! Port Impedance         50               0                50               0                
33                             0.0308633578071231 34.5736520844387 0.886905098486626 175.223368280787 0.886905098486627 175.223368280787 0.0333868670603584 30.883083384668  
! Gamma         52.1721288910934 1601.80987229594 51.3043811487549 1600.59145510702 
! Port Impedance         50               0                50               0                
34                             0.046646338708514 50.3234691285919 0.883606992908347 169.545134260352 0.883606992908346 169.545134260352 0.0483944210451736 46.5694261818359 
! Gamma         53.5598974903227 1650.12647304033 52.671804771843  1648.8887437999  
! Port Impedance         50               0                50               0                
35                             0.0649256790270424 54.625279788434  0.879963714165306 163.875930207388 0.879963714165305 163.875930207388 0.0661998344696769 51.417828810502  
! Gamma         54.9419962277308 1698.44208045847 54.03387602926   1697.18546838421 
! Port Impedance         50               0                50               0                
36                             0.0834936846528958 54.5206772120913 0.876013047098823 158.220075592173 0.876013047098823 158.220075592173 0.0844741573283081 51.7310321176283 
! Gamma         56.3186745993022 1746.75730526073 55.3908359539757 1745.4822114431  
! Port Impedance         50               0                50               0                
37                             0.101573733842412 52.4400995496699 0.871804621597107 152.581334339626 0.871804621597107 152.581334339626 0.102352473983823 49.9334833847285 
! Gamma         57.6901861816084 1795.07271042114 56.7429289344628 1793.77951027429 
! Port Impedance         50               0                50               0                
38                             0.118774723948817 49.3416843296466 0.867397351382876 146.962774988691 0.867397351382876 146.962774988691 0.119401720086843 47.0264077154191 
! Gamma         59.0567852855259 1843.38881521936 58.090399594944  1842.07786080525 
! Port Impedance         50               0                50               0                
39                             0.134845528349798 45.667055578426  0.862856584139182 141.366667290303 0.862856584139182 141.366667290303 0.135349863042225 43.4818262000795 
! Gamma         60.4187242603088 1891.70609914862 59.4334902947147 1890.37772131304 
! Port Impedance         50               0                50               0                
40                             0.14960326515909 41.6458677793061 0.85825115326071 135.794417770419 0.858251153260711 135.794417770419 0.150002700155563 39.5481773548945 
! Gamma         61.7762513633657 1940.02500559401 60.772439152562  1938.67951593869 
! Port Impedance         50               0                50               0                
41                             0.162907474021548 37.4088764295247 0.853650503403868 130.246544067866 0.853650503403866 130.246544067866 0.163213147795596 35.3678313618197 
! Gamma         63.1296091017231 1988.34594524385 62.1074785193567 1986.98363795401 
! Port Impedance         50               0                50               0                
42                             0.174648843576912 33.0358624286009 0.849122029584149 124.722685612086 0.84912202958415 124.722685612086 0.174867741390277 31.027904496591  
! Gamma         64.4790329684629 2036.66929932074 63.4388338175729 2035.29045282552 
! Port Impedance         50               0                50               0                
43                             0.184743207272414 28.5782340915324 0.844728729575726 119.221646548987 0.844728729575726 119.221646548987 0.184879532622148 26.584519457424  
! Gamma         65.8247505185488 2084.99542249644 64.7667227001876 2083.60030100286 
! Port Impedance         50               0                50               0                
44                             0.193127672546521 24.0706703140037 0.840527228475465 113.741465858431 0.840527228475465 113.741465858431 0.193183634779649 22.075394195437  
! Gamma         67.1669807134391 2133.32464562092 66.0913544683418 2131.91350049738 
! Port Impedance         50               0                50               0                
45                             0.199757748346338 19.5376003740466 0.836566197808754 108.279509246676 0.836566197808754 108.279509246676 0.199734017010699 17.5268696775993 
! Gamma         68.5059335040476 2181.65727820344 67.4129296930672 2180.23034923085 
! Port Impedance         50               0                50               0                
46                             0.20460506216526 14.997085826363  0.832885162977405 102.832577540388 0.832885162977405 102.832577540388 0.204501016213327 12.9581128871878 
! Gamma         69.8418095888536 2229.99361066565 68.7316400190514 2228.55112719593 
! Port Impedance         50               0                50               0                
47                             0.207655537834867 10.4633341481482 0.82951367374519 97.3970267864291 0.82951367374519 97.3970267864291 0.207469376602705 8.38381620364739 
! Gamma         71.1748003281886 2278.33391638569 70.0476681068645 2276.87609836347 
! Port Impedance         50               0                50               0                
48                             0.208908012569533 5.94847968515487 0.826470802766918 91.9688959189184 0.826470802766919 91.9688959189184 0.208636762170362 3.81607774113919 
! Gamma         72.505087783768  2326.67845356906 71.3611876829583 2325.20551247347 
! Port Impedance         50               0                50               0                
49                             0.20837330798406 1.4639899389593  0.823764935625874 86.5440385327314 0.823764935625874 86.5440385327313 0.208012736383144 -0.734153651675518 
! Gamma         73.8328448436125 2375.0274669156  72.6723636817461 2373.53960659811 
! Port Impedance         50               0                50               0                
50                             0.206073776692615 -2.97807478992921 0.821393820530912 81.1182558904049 0.821393820530911 81.118255890405  0.20561821588874 -5.2558289013088 
! Gamma         75.1582354290623 2423.38118913787 73.9813524541528 2421.87860657417 
! Port Impedance         50               0                50               0                
51                             0.202043343120299 -7.36377315827504 0.819344854445639 75.68742870972   0.819344854445639 75.68742870972   0.201485403163847 -9.73656698459116 
! Gamma         76.4814147548856 2471.73984231479 75.2883020272108 2470.22272829865 
! Port Impedance         50               0                50               0                
52                             0.196328054913897 -11.6757935954205 0.81759559269323 70.2476454840019 0.817595592693229 70.2476454840019 0.195658198535063 -14.1612737808013 
! Gamma         77.8025296321035 2520.10363911021 76.5933524041893 2518.57217885102 
! Port Impedance         50               0                50               0                
53                             0.188987168806555 -15.891549530303 0.816114478779382 64.7953250671762 0.81611447877938 64.7953250671761 0.188193093326051 -18.5104098061613 
! Gamma         79.1217188025322 2568.47278386424 77.8966358877495 2566.92715754537 
! Port Impedance         50               0                50               0                
54                             0.180094823584665 -19.9805433100426 0.814861798358306 59.3273310550209 0.814861798358306 59.327331055021  0.179160562847459 -22.7576131024205 
! Gamma         80.4391132902372 2616.84747357408 79.1982774250739 2615.28785684334 
! Port Impedance         50               0                50               0                
55                             0.169742424074923 -23.9004854426387 0.813790864236697 53.8410751368993 0.813790864236696 53.8410751368992 0.168647027723384 -26.8661964334627 
! Gamma         81.7548367654441 2665.22789876041 80.4983949587141 2663.6544631671  
