! Touchstone file exported from HFSS 2024.2.0
!        File:           C:/Users/vaintrug/Documents/Ansoft_Workspace/Comparaison_Calculs_HFSS/1_VarPort.aedt
!        Generated:      03:22:17 PM Jan 21, 2025
!        Design:         1_NoDeembed_FacePortFree
!        Project:        1_VarPort
!        Setup:          Setup1
!        Solution:       Sweep
!
! Variables:
!        $Lenght = 1500um
!        $PortSize = 250um
!        Gap = 30um
!        Th = 2um
!        X_centralStrip = 20um
!        X_masse = 200um
!        Y_Sub = 1.5mm
!        Z_Box = 400um
!        Z_Sub = 200um
!
# GHz S MA R 50.000000
! Terminal data exported
! Port[1] = 1
! Port[2] = 2
1                              0.0203521638313544 62.1219973315422 0.989083468997659 -4.42407456834251 0.989083468997659 -4.42407456834252 0.0203540643821918 62.1088077383215 
! Gamma         6.15558501834039 50.3210682135681 6.16436234699314 50.2340817874134 
! Port Impedance         50               0                50               0                
2                              0.0362100597054469 69.3295721852674 0.986564201341549 -8.74729346560315 0.986564201341549 -8.74729346560315 0.0362148491323316 69.2961347235665 
! Gamma         8.05363912581747 99.1725246556373 8.08454157044606 98.9068220918169 
! Port Impedance         50               0                50               0                
3                              0.0524410584920095 69.8279146087689 0.984106340450759 -13.0744264923581 0.984106340450758 -13.0744264923581 0.0524478779786451 69.7738076335971 
! Gamma         9.55062806015798 148.003086642877 9.57815717106647 147.577515011133 
! Port Impedance         50               0                50               0                
4                              0.0685575894909811 68.0743333740977 0.981410876132826 -17.4000087300564 0.981410876132826 -17.4000087300564 0.0685653223586921 67.9996274570616 
! Gamma         10.9301638359574 196.898316751113 10.9534089290949 196.32040018437  
! Port Impedance         50               0                50               0                
5                              0.0842996085555094 65.3306180875795 0.978432577424234 -21.7186009475986 0.978432577424234 -21.7186009475986 0.0843071359564625 65.23525529522   
! Gamma         12.2871547711209 245.830762030851 12.3070515559215 245.10278428252  
! Port Impedance         50               0                50               0                
6                              0.0995016978249979 62.0803343893928 0.975183755519731 -26.0264042057412 0.975183755519731 -26.0264042057412 0.0995079419498675 61.9640945552293 
! Gamma         13.6524369565677 294.776631811373 13.6697904570827 293.899249146818 
! Port Impedance         50               0                50               0                
7                              0.11404100343045 58.5461983367882 0.97169644505214 -30.3206273996568 0.97169644505214 -30.3206273996568 0.114044921332167 58.4087193254772 
! Gamma         15.0362957025357 343.72094810585  15.0516997300001 342.694234027228 
! Port Impedance         50               0                50               0                
8                              0.12781910222606 54.8446746948202 0.968011676138855 -34.5991999755511 0.968011676138855 -34.5991999755511 0.127819667791912 54.6854696349504 
! Gamma         16.4414437360766 392.654333378176 16.4553402688605 391.478115740188 
! Port Impedance         50               0                50               0                
9                              0.140754858457949 51.0424949373652 0.96417495829805 -38.8606503816824 0.964174958298049 -38.8606503816825 0.140751042170029 50.8609620655622 
! Gamma         17.8674253929989 441.57079151489  17.880147231939  440.244780561036 
! Port Impedance         50               0                50               0                
10                             0.152781080593561 47.180537138432  0.96023365458534 -43.104043883637 0.96023365458534 -43.104043883637 0.15277182998712 46.9759637600789 
! Gamma         19.3123519221172 490.466482912094 19.3241471274002 488.990329080631 
! Port Impedance         50               0                50               0                
11                             0.163842579484446 43.2850865587763 0.956235126988266 -47.3289388601661 0.956235126988266 -47.3289388601661 0.163826801333423 43.0566486399996 
! Gamma         20.7736866401099 539.339039004159 20.7847333411489 537.712363786988 
! Port Impedance         50               0                50               0                
12                             0.173894763861694 39.3736295573291 0.952225314438566 -51.5353465552524 0.952225314438568 -51.5353465552524 0.173871308487003 39.1203878927999 
! Gamma         22.2486450999137 588.187151760987 22.2590619066433 586.409566582686 
! Port Impedance         50               0                50               0                
13                             0.182902453321643 35.4580586737324 0.948247623892195 -55.7236893477222 0.948247623892195 -55.7236893477221 0.182870101107969 35.1789520214017 
! Gamma         23.7344186192975 637.010306255634 23.7442730402348 635.081425006672 
! Port Impedance         50               0                50               0                
14                             0.190838797593359 31.5465602984655 0.944342079700446 -59.8947566108441 0.944342079700446 -59.8947566108441 0.190796247611557 31.240395633291  
! Gamma         25.2283060428284 685.808591687157 25.237622067177  683.72803931194  
! Port Impedance         50               0                50               0                
15                             0.197684273820577 27.6447909572343 0.940544694716164 -64.0496587345169 0.940544694716164 -64.0496587345169 0.197630134284565 27.3102306750587 
! Gamma         26.7277924814396 734.582558545383 26.7365575978335 732.349976978651 
! Port Impedance         50               0                50               0                
16                             0.203425764871028 23.7566498034168 0.936887031072796 -68.1897803306042 0.936887031072796 -68.1897803306042 0.203358545032995 23.3921955737992 
! Gamma         28.2305943072273 783.333105822854 28.2387660873345 780.948157781785 
! Port Impedance         50               0                50               0                
17                             0.208055731029324 19.8848122455417 0.933395919993292 -72.3167336299718 0.933395919993292 -72.3167336299718 0.207973834004012 19.4887850122333 
! Gamma         29.7346814803074 832.061389375412 29.7421936355449 829.523760555092 
! Port Impedance         50               0                50               0                
18                             0.211571487837517 16.0311176764528 0.93009331161941 -76.4323128578225 0.93009331161941 -76.4323128578225 0.211473203744226 15.6016330872476 
! Gamma         31.2382840290899 880.768746788682 31.2450519340583 878.078146765708 
! Port Impedance         50               0                50               0                
19                             0.213974599298665 12.1968663422473 0.926996228613074 -80.5384501436382 0.926996228613072 -80.5384501436382 0.213858098007505 11.7318046590405 
! Gamma         32.7398875500969 929.456635625285 32.7458131005991 926.61279785742  
! Port Impedance         50               0                50               0                
20                             0.215270391495255 8.38305981894634 0.924116800913058 -84.6371732872445 0.924116800913058 -84.6371732872445 0.21513371414336 7.88002902404446 
! Gamma         34.2382211286911 978.126583208274 34.2431969960288 975.129264242097 
! Port Impedance         50               0                50               0                
21                             0.215467587641821 4.59060819248402 0.921462363210202 -88.7305655201534 0.921462363210201 -88.7305655201534 0.215308635935899 4.04689862215214 
! Gamma         35.7322403771651 1026.78014618373 35.7361535857614 1023.62912439517 
! Port Impedance         50               0                50               0                
22                             0.214578062213387 0.820520955186133 0.919035601031091 -92.8207272898246 0.919035601031092 -92.8207272898246 0.214394584305267 0.23304918376337 
! Gamma         37.2211075459327 1075.41887864127 37.2238424577204 1072.11395259823 
! Port Impedance         50               0                50               0                
23                             0.212616709242934 -2.92590426428993 0.916834735452745 -96.9097400162436 0.916834735452746 -96.9097400162436 0.212406280658643 -3.56066530350964 
! Gamma         38.7041702584494 1124.04430747041 38.7056109799005 1120.58529413209 
! Port Impedance         50               0                50               0                
24                             0.209601418013595 -6.64688154609561 0.914853740211607 -100.999631756653 0.914853740211608 -100.999631756653 0.209361415648024 -7.33299031717342 
! Gamma         40.1809399703715 1172.6579139541  40.180972235071  1169.04464673805 
! Port Impedance         50               0                50               0                
25                             0.20555314814003 -10.3399100063471 0.913082588172139 -105.09234472465 0.91308258817214 -105.09234472465 0.205280714654618 -11.0820676307129 
! Gamma         41.6510709637539 1221.26112050614 41.6495835814875 1217.49344738568 
! Port Impedance         50               0                50               0                
26                             0.200496095371344 -14.0015016820451 0.911507526713363 -109.189704670851 0.911507526713364 -109.189704670851 0.200188090316332 -14.805194539036 
! Gamma         43.1143404277504 1269.85528166198 43.1112263283801 1265.93306331287 
! Port Impedance         50               0                50               0                
27                             0.194457939742644 -17.6268380505991 0.910111383461147 -113.293392181053 0.910111383461147 -113.293392181053 0.194110872219028 -18.4985227503852 
! Gamma         44.5706299729669 1318.44167859718 44.5657869312913 1314.36478663354 
! Port Impedance         50               0                50               0                
28                             0.187470168769604 -21.2093174431701 0.908873905040929 -117.404916051505 0.908873905040928 -117.404916051505 0.187080104142833 -22.1566639544995 
! Gamma         46.0199087853057 1367.02151637784 46.0132398806883 1362.7898316872  
! Port Impedance         50               0                50               0                
29                             0.179568471646159 -24.7399357873995 0.907772131971136 -121.525588978189 0.907772131971136 -121.525588978189 0.179130901243629 -25.7721517352531 
! Gamma         47.4622185022904 1415.59592330722 47.4536323452013 1411.20933460382 
! Port Impedance         50               0                50               0                
30                             0.170793206739995 -28.2064096515598 0.906780812578592 -125.656505879494 0.906780812578592 -125.656505879494 0.170302863794822 -29.3346798800924 
! Gamma         48.8976597960086 1464.16595204885 48.8870705991548 1459.62435448898 
! Port Impedance         50               0                50               0                
31                             0.161189956908995 -31.5918926069175 0.9058728578664  -129.798525264416 0.9058728578664  -129.798525264416 0.160640552767772 -32.829985523774 
! Gamma         50.3263806226334 1512.7325818415  50.3137081284297 1508.03587583622 
! Port Impedance         50               0                50               0                
32                             0.150810210614494 -34.8730324038814 0.90501983760422 -133.952254107453 0.905019837604219 -133.952254107453 0.15019404967392 -36.2381525655074 
! Gamma         51.7485660303806 1561.29672166959 51.7337353384968 1556.44481183769 
! Port Impedance         50               0                50               0                
33                             0.139712251667575 -38.0169249550206 0.904192515654461 -138.118036731141 0.90419251565446 -138.118036731141 0.139019656546584 -39.5309365527392 
! Gamma         53.1644293974081 1609.85921397757 53.1473707325621 1604.85200821262 
! Port Impedance         50               0                50               0                
34                             0.127962429249063 -40.9761509908614 0.903361419791468 -142.295948212014 0.903361419791468 -142.295948212014 0.127180858990193 -42.6673711554166 
! Gamma         54.5742049883924 1658.42083878667 54.5548534032345 1653.25824745442 
! Port Impedance         50               0                50               0                
35                             0.115637163101085 -43.6803312596431 0.902497438160933 -146.485792781847 0.902497438160933 -146.485792781847 0.114749815751881 -45.5862117319392 
! Gamma         55.9781416710113 1706.98231794272 55.956436727661  1701.66425321386 
! Port Impedance         50               0                50               0                
36                             0.102826439249972 -46.0210299371583 0.901572431314408 -150.687107636755 0.901572431314408 -150.687107636755 0.101809950479933 -48.1922250095297 
! Gamma         57.3764976689371 1755.54431947461 57.3523830998987 1750.0706947199  
! Port Impedance         50               0                50               0                
37                             0.0896404901652101 -47.8231797274854 0.900559845669725 -154.899172445662 0.900559845669725 -154.899172445662 0.0884609706407173 -50.3296879111559 
! Gamma         58.7695362252101 1804.10746186009 58.7429595902657 1798.47819118082 
! Port Impedance         50               0                50               0                
38                             0.076223742382501 -48.7873189992017 0.899435311607139 -159.121024695255 0.899435311607139 -159.121024695255 0.0748296131807562 -51.727125332069 
! Gamma         60.1575220478292 1852.67231819225 60.1284343953295 1846.88731599602 
! Port Impedance         50               0                50               0                
39                             0.062786795823657 -48.364039115629 0.898177207503947 -163.35148082037 0.898177207503947 -163.35148082037 0.0610952427272795 -51.8711372672298 
! Gamma         61.5407184447475 1901.23942016799 61.509073981678  1895.29860082005 
! Port Impedance         50               0                50               0                
40                             0.0496877573189999 -45.4624725102487 0.896767170097725 -167.589162849483 0.896767170097725 -167.589162849483 0.0475590481953892 -49.6872632777955 
! Gamma         62.9193850368766 1949.80926185566 62.8851408088249 1943.71253940444 
! Port Impedance         50               0                50               0                
41                             0.0376605548666618 -37.7794730367133 0.895190531881688 -171.832530069513 0.895190531881688 -171.832530069513 0.0348608299000713 -42.6664120999631 
! Gamma         64.2937759632025 1998.3823032313  64.2568915576268 1992.12959117401 
! Port Impedance         50               0                50               0                
42                             0.028443208608848 -20.9413665052661 0.893436667845258 -176.079914985017 0.893436667845257 -176.079914985017 0.024723541949759 -24.9368022305018 
! Gamma         65.6641385098334 2046.95897348937 65.6245757729361 2040.55018458888 
! Port Impedance         50               0                50               0                
43                             0.025481003978788 6.78929087881615 0.89149923679135 179.670437356023 0.89149923679135 179.670437356023 0.0213996652893581 8.18985775853983 
! Gamma         67.0307120874272 2095.53967409096 66.9884348616108 2088.97472022187 
! Port Impedance         50               0                50               0                
44                             0.0306109143242264 31.8873650613309 0.889376306522884 175.420327763508 0.889376306522884 175.420327763508 0.027442237933768 36.9411432758505 
! Gamma         68.3937274994162 2144.12478158507 68.3487013822851 2137.40357361781 
! Port Impedance         50               0                50               0                
45                             0.0407415906367473 45.4174325073877 0.887070357121625 171.171560253177 0.887070357121625 171.171560253177 0.0385233201830144 50.2380059165621 
! Gamma         69.7534064560754 2192.71465016737 69.7055985774953 2185.83709788766 
! Port Impedance         50               0                50               0                
46                             0.0528731832788376 51.3194077063273 0.884588161991939 166.92589961244  0.884588161991939 166.92589961244  0.0512674848199177 55.2525892173668 
! Gamma         71.1099612795825 2241.30961407421 71.0593401015996 2234.27562609711 
! Port Impedance         50               0                50               0                
47                             0.0656710940145083 53.3377675063204 0.881940551872519 162.685030449939 0.881940551872519 162.685030449939 0.0644539931158866 56.5218743944473 
! Gamma         72.4635947833438 2289.90998968746 72.4101299119806 2282.71947342399 
! Port Impedance         50               0                50               0                
48                             0.0785595847146746 53.3053395259483 0.87914207220286 158.450518926817 0.87914207220286 158.450518926817 0.0776017801990287 55.9236762012151 
! Gamma         73.8145002640417 2338.51607750822 73.7581622858808 2331.16893911991 
! Port Impedance         50               0                50               0                
49                             0.0912451331541837 52.1013959460789 0.876210548674705 154.223778232203 0.876210548674705 154.223778232203 0.0904687436376811 54.290441262165  
! Gamma         75.1628616153437 2387.12816389471 75.1036219449878 2379.62430828422 
! Port Impedance         50               0                50               0                
50                             0.103549821446066 50.1798632719228 0.873166579172446 150.006038691318 0.873166579172446 150.006038691318 0.102904800537127 52.0345480607633 
! Gamma         76.5088535061866 2435.74652267988 76.4466842532832 2428.08585346533 
! Port Impedance         50               0                50               0                
51                             0.115350435138933 47.7940617337326 0.870032972423904 145.798323177603 0.870032972423904 145.798323177603 0.114802603221215 49.3807292715355 
! Gamma         77.8526416352982 2484.37141658497 77.7875154812642 2476.55383610106 
! Port Impedance         50               0                50               0                
52                             0.126553712543834 45.0951905813964 0.866834154453692 141.601428271916 0.866834154453692 141.601428271916 0.126078451985408 46.4611606532173 
! Gamma         79.1943830222907 2533.00309850895 79.1262731137852 2525.02850781738 
! Port Impedance         50               0                50               0                
53                             0.137085201362683 42.1786640025892 0.863595563437982 137.415911378391 0.863595563437982 137.415911378391 0.136663953122491 43.3584466467177 
! Gamma         80.5342263390668 2581.64181269841 80.4631061936269 2573.51011158457 
! Port Impedance         50               0                50               0                
54                             0.14688375093734 39.1075196208547 0.860343051951989 133.242083790291 0.86034305195199 133.242083790291 0.146501966078973 40.1267928702757 
! Gamma         81.8723122611862 2630.28779578113 81.7981556796036 2621.99888276752 
! Port Impedance         50               0                50               0                
55                             0.155898531265065 35.9250176363119 0.857102313153429 129.080009504951 0.857102313153429 129.080009504951 0.155544418374167 36.8032089335804 
! Gamma         83.2087738383931 2678.94127768755 83.1315548312346 2670.49505005237 
