! Touchstone file exported from HFSS 2024.2.0
!        File:           C:/Users/vaintrug/Documents/Ansoft_Workspace/Comparaison_Calculs_HFSS/1_VarPort.aedt
!        Generated:      03:22:16 PM Jan 21, 2025
!        Design:         1_NoDeembed_FacePortFree
!        Project:        1_VarPort
!        Setup:          Setup1
!        Solution:       Sweep
!
! Variables:
!        $Lenght = 1500um
!        $PortSize = 120um
!        Gap = 30um
!        Th = 2um
!        X_centralStrip = 20um
!        X_masse = 200um
!        Y_Sub = 1.5mm
!        Z_Box = 400um
!        Z_Sub = 200um
!
# GHz S MA R 50.000000
! Terminal data exported
! Port[1] = 1
! Port[2] = 2
1                              0.0203839899446513 62.1606940064412 0.989086392948287 -4.42272380672006 0.989086392948287 -4.42272380672006 0.0203849134821967 62.1413513825931 
! Gamma         5.89012319533132 49.9314748361614 5.9892556154897  50.2947506822232 
! Port Impedance         50               0                50               0                
2                              0.0362863135430223 69.3822279133451 0.986585628851896 -8.74522329683141 0.986585628851896 -8.74522329683141 0.0362875763810639 69.3405828659713 
! Gamma         7.73752287980693 98.4041655578952 8.01569638156899 99.0215172633985 
! Port Impedance         50               0                50               0                
3                              0.0525776758809455 69.8775049135163 0.984139159771033 -13.0722853753909 0.984139159771034 -13.0722853753909 0.0525780033642741 69.8129895379553 
! Gamma         9.18212695707554 146.893883028151 9.57667740988038 147.664430026956 
! Port Impedance         50               0                50               0                
4                              0.0687596244159412 68.1166681398433 0.981448495779918 -17.3979112475816 0.981448495779918 -17.3979112475816 0.0687574301030171 68.02917124123   
! Gamma         10.524008622619  195.455145031149 10.986586433024  196.370458761124 
! Port Impedance         50               0                50               0                
5                              0.0845701853621761 65.3662126359191 0.978470747476042 -21.7165420282886 0.97847074747604 -21.7165420282886 0.084563918907378 65.2555499512379 
! Gamma         11.8498500924474 244.052732918853 12.3601601103318 245.118852801008 
! Port Impedance         50               0                50               0                
6                              0.0998442709114992 62.1103841788651 0.975219392333224 -26.0243546783717 0.975219392333224 -26.0243546783717 0.0998324544967712 61.9762262700767 
! Gamma         13.186164762288  292.662363029169 13.7361970196433 293.884804206663 
! Port Impedance         50               0                50               0                
7                              0.114459750876915 58.5717482886114 0.971726985294547 -30.318551746501 0.971726985294547 -30.318551746501 0.114440971139946 58.413628745591  
! Gamma         14.5414002982462 341.269624454514 15.1283406691528 342.651816344418 
! Port Impedance         50               0                50               0                
8                              0.128318914060132 54.8665131489694 0.968034775472638 -34.5970568657253 0.968034775472638 -34.5970568657254 0.128291809543457 54.6838384796717 
! Gamma         15.9175153906789 389.865684673787 16.5408495205221 391.409340567156 
! Port Impedance         50               0                50               0                
9                              0.141341239701184 51.0611931332354 0.964188357719612 -38.8583893924068 0.964188357719613 -38.8583893924068 0.141304488634948 50.8532465605092 
! Gamma         17.3137770192167 438.444930277298 17.9740266989871 440.150536520311 
! Port Impedance         50               0                50               0                
10                             0.153460044222531 47.1965055293962 0.960235130692961 -43.1016017106649 0.960235130692961 -43.1016017106649 0.153412352832233 46.9624457024743 
! Gamma         18.7282377554443 487.003761094689 19.4263647086068 488.870948459575 
! Port Impedance         50               0                50               0                
11                             0.164620547056623 43.298621723786  0.956222487328959 -47.3262358977162 0.956222487328959 -47.3262358977162 0.164560638149915 43.0374775090632 
! Gamma         20.1584046330866 535.539940731133 20.8955105545375 537.567745195724 
! Port Impedance         50               0                50               0                
12                             0.17477847707636 39.3849489060378 0.952196418759036 -51.5322840939692 0.952196418759036 -51.5322840939692 0.174705078723362 39.0956109787453 
! Gamma         21.601583372325  584.052215646623 22.3787525533809 586.239261893039 
! Port Impedance         50               0                50               0                
13                             0.1838988960082  35.4673249321913 0.948200420962482 -55.7201474630554 0.948200420962482 -55.7201474630554 0.183810730169035 35.1485343547877 
! Gamma         23.0550733431378 632.540069279101 23.873289266675  634.884702646682 
! Port Impedance         50               0                50               0                
14                             0.191955126573038 31.5538981239896 0.94427465361302 -59.8905927568305 0.94427465361302 -59.8905927568305 0.191850897523697 31.2042318881173 
! Gamma         24.516284343734  681.003548674166 25.3763870964449 683.503932207392 
! Port Impedance         50               0                50               0                
15                             0.198927756665725 27.6502974836021 0.940455316759067 -64.044707047562 0.940455316759067 -64.044707047562 0.198806139021111 27.2681506845692 
! Gamma         25.9828073414368 729.443133044318 26.8854747917671 732.097320399317 
! Port Impedance         50               0                50               0                
16                             0.204803722400981 23.7604003315203 0.936774214507936 -68.1838516363205 0.936774214507936 -68.1838516363205 0.204663348475263 23.3439645107503 
! Gamma         27.4524553822859 777.859629352918 28.3981986918696 780.665620211575 
! Port Impedance         50               0                50               0                
17                             0.209575482384552 19.8868618246754 0.933258475797845 -72.3096161364227 0.933258475797845 -72.3096161364227 0.209414928544955 19.4340987806083 
! Gamma         28.9232840712408 826.254086958065 29.912451982723  829.209869391488 
! Port Impedance         50               0                50               0                
18                             0.21324029577007 16.0314989077356 0.929930403744056 -76.4237735268537 0.929930403744057 -76.4237735268537 0.213058067347792 15.5401090774181 
! Gamma         30.3935975160132 874.627727234933 31.426386007095  877.731310018048 
! Port Impedance         50               0                50               0                
19                             0.215799613536341 12.1955834653473 0.92680742756051 -80.5282367155717 0.92680742756051 -80.5282367155717 0.215594127727018 11.6629676311311 
! Gamma         31.8619440268239 922.981885363328 32.9384090907336 926.231322407627 
! Port Impedance         50               0                50               0                
20                             0.21725858799314 8.38007878714898 0.923902134619623 -84.6250169393093 0.923902134619622 -84.6250169393093 0.217028154033842 7.80329156143915 
! Gamma         33.3271046800181 971.317962802993 34.4471767597697 974.711371209095 
! Port Impedance         50               0                50               0                
21                             0.21762570171827 4.58584215797525 0.921222364263593 -88.7161841370699 0.921222364263593 -88.7161841370699 0.217368497402297 3.96153513464982 
! Gamma         34.7880772030004 1019.63738886304 35.9515762530043 1023.17296188084 
! Port Impedance         50               0                50               0                
22                             0.216912513786575 0.813810138492156 0.918771349225483 -92.8038293165825 0.918771349225483 -92.8038293165825 0.216626557094435 0.138161968278585 
! Gamma         36.2440570470277 1067.94159026893 37.4507075204397 1071.6176061542  
! Port Impedance         50               0                50               0                
23                             0.215133518628974 -2.93481987784487 0.916547894597531 -96.8900288599672 0.916547894597531 -96.8900288599672 0.214816632844576 -3.66619016567071 
! Gamma         37.6944170734688 1116.23196766774 38.9438623810128 1120.04679514057 
! Port Impedance         50               0                50               0                
24                             0.212306110987616 -6.65839905608809 0.914546587991092 -100.976810695962 0.914546587991092 -100.976810695962 0.211955881102243 -7.45054041878216 
! Gamma         39.1386869595125 1164.50987793213 40.4305030498034 1168.46197902046 
! Port Impedance         50               0                50               0                
25                             0.20845064928593 -10.3546135272482 0.91275803770143 -105.066122277635 0.91275803770143 -105.066122277635 0.208064366659838 -11.2133797437143 
! Gamma         40.5765330676169 1212.7766215058  41.910240988031  1216.864552228   
! Port Impedance         50               0                50               0                
26                             0.203590608987507 -14.0202307408859 0.911169138293169 -109.159800351913 0.911169138293169 -109.159800351913 0.203165200061617 -14.9524550246945 
! Gamma         42.0077393463239 1261.03343372203 43.3828166383472 1265.25584313087 
! Port Impedance         50               0                50               0                
27                             0.197752817623433 -17.6507827206226 0.909763364944187 -113.259542571217 0.909763364944187 -113.259542571217 0.197284750710039 -18.6645031867194 
! Gamma         43.4321895809731 1309.28147955046 44.8480805048684 1313.63710748824 
! Port Impedance         50               0                50               0                
28                             0.19096776414222 -21.2401531360243 0.908521099149116 -117.366881077881 0.908521099149116 -117.366881077881 0.190452925678372 -22.3449077453998 
! Gamma         44.8498512283603 1357.52185095996 46.3059757968612 1362.00952489197 
! Port Impedance         50               0                50               0                
29                             0.183269977767534 -24.7800184262787 0.907419988959568 -121.48315828298 0.907419988959567 -121.48315828298 0.182703505360139 -25.9872363417031 
! Gamma         46.2607608821606 1405.75556635221 47.7565227692721 1410.37419748292 
! Port Impedance         50               0                50               0                
30                             0.174698476919146 -28.2590652199566 0.90643534679399 -125.609505137986 0.906435346793989 -125.609505137986 0.174074530130856 -29.5825942800266 
! Gamma         47.6650113980853 1453.98357158975 49.1998047715371 1458.73215056656 
! Port Impedance         50               0                50               0                
31                             0.165297298993054 -31.6618584939758 0.905540587028483 -129.746822286013 0.905540587028483 -129.746822286013 0.164608738528572 -33.118688459026 
! Gamma         49.0627406194321 1502.20674220987 50.6359559734268 1507.08433450164 
! Port Impedance         50               0                50               0                
32                             0.155116141086686 -34.9671508130071 0.904707704100811 -133.895764539514 0.904707704100811 -133.895764539514 0.154354069955351 -36.5784237873743 
! Gamma         50.4541215895174 1550.42588645652 52.0651506776871 1555.431627629   
! Port Impedance         50               0                50               0                
33                             0.144211178697907 -38.1452699259178 0.903907789725128 -138.056729166676 0.903907789725128 -138.056729166676 0.143364269627953 -39.9377208693848 
! Gamma         51.8393541717543 1598.6417488777  53.4875941130812 1603.7748398054  
! Port Impedance         50               0                50               0                
34                             0.13264620068234 -41.1539322245409 0.903111585246441 -142.229848497545 0.903111585246442 -142.229848497545 0.131699681943497 -43.1619870719125 
! Gamma         53.2186579132454 1646.85501429555 54.9035145648298 1652.11471646884 
! Port Impedance         50               0                50               0                
35                             0.120494343235758 -43.9312556282354 0.902290062147628 -146.41498731995 0.902290062147628 -146.41498731995 0.119428418629458 -46.2001534825289 
! Gamma         54.5922660405782 1695.06631192178 56.3131567231978 1700.45194284792 
! Port Impedance         50               0                50               0                
36                             0.107841012280426 -46.3835490958605 0.901415020616186 -150.611745489847 0.901415020616186 -150.611745489847 0.106628304680513 -48.9740755350949 
! Gamma         55.9604204535672 1743.27621951263 57.7167761050813 1748.78714831619 
! Port Impedance         50               0                50               0                
37                             0.0947892790326184 -48.3628167696566 0.900459692994269 -154.819466068758 0.900459692994268 -154.819466068758 0.0933905100684697 -51.3585345369385 
! Gamma         57.3233675859865 1791.48526752621 59.1146344233056 1797.12091073553 
! Port Impedance         50               0                50               0                
38                             0.0814707336404081 -49.6227270349412 0.899399336255404 -159.037249161487 0.899399336255404 -159.037249161487 0.0798270583246744 -53.140710151155 
! Gamma         58.6813550356078 1839.69394308711 60.5069957892031 1845.45376066227 
! Port Impedance         50               0                50               0                
39                             0.0680693155918553 -49.7264344644023 0.898211795590517 -163.263971451279 0.898211795590517 -163.263971451279 0.0660880334747895 -53.9306493901893 
! Gamma         60.0346288348912 1887.90269382618 61.8941236179144 1893.78618541824 
! Port Impedance         50               0                50               0                
40                             0.0548788793439523 -47.8405536228845 0.896878020052549 -167.498311217519 0.896878020052549 -167.498311217519 0.0524059829117094 -52.9422253788614 
! Gamma         61.3834312919652 1936.11193148126 63.2762781613425 1942.11863296457 
! Port Impedance         50               0                50               0                
41                             0.0424564697365794 -42.2642404995403 0.895382511212398 -171.738778405038 0.895382511212397 -171.738778405038 0.0392283645202727 -48.3982034928781 
! Gamma         62.7279992974527 1984.32203530927 64.6537145549822 1990.45151552535 
! Port Impedance         50               0                50               0                
42                             0.032045946082011 -29.5962474050649 0.893713687031539 -175.983749092864 0.893713687031538 -175.983749092864 0.0276749046206409 -35.9169597656472 
! Gamma         64.0685630361693 2032.53335522732 66.0266813122116 2038.78521299466 
! Port Impedance         50               0                50               0                
43                             0.0263791952515565 -6.05817465140552 0.891864145688282 179.768496502423 0.891864145688282 179.768496502423 0.020937442860844 -7.72169305169166 
! Gamma         65.4053450296468 2080.74621473694 67.3954191933295 2087.1200760939  
! Port Impedance         50               0                50               0                
44                             0.0284621509997746 21.1821754078238 0.889830817786578 175.519733518008 0.889830817786577 175.519733518008 0.0235995184792364 26.7795088611957 
! Gamma         66.7385594600495 2128.96091359689 68.7601603794492 2135.45642926131 
! Port Impedance         50               0                50               0                
45                             0.0368813195195919 38.758796499806  0.887614999990687 171.271750600605 0.887614999990686 171.271750600605 0.0333468586513389 45.5592018972627 
! Gamma         68.0684117255063 2177.17773029061 70.1211279137815 2183.7945733414  
! Port Impedance         50               0                50               0                
46                             0.0482390316372848 47.1242982663959 0.885222268352869 167.026307958297 0.885222268352869 167.026307958297 0.0456525013818195 52.9342952526605 
! Gamma         69.3950981759145 2225.39692426747 71.4785353489282 2232.1347880326  
! Port Impedance         50               0                50               0                
47                             0.0606786364271908 50.477646872077  0.882662275008146 162.785096559511 0.882662275008146 162.785096559511 0.0586910415968964 55.2462546377398 
! Gamma         70.7188060097155 2273.6187379683  72.8325865684932 2280.47733409214 
! Port Impedance         50               0                50               0                
48                             0.073403237802226 51.2089399912877 0.879948437101451 158.549699671252 0.87994843710145 158.549699671252 0.0718080084871811 55.1655415089016 
! Gamma         72.0397132900392 2321.84339867514 74.1834757573147 2328.82245536194 
! Port Impedance         50               0                50               0                
49                             0.0860307522268684 50.4745514344594 0.877097531368264 154.321557817973 0.877097531368264 154.321557817973 0.0847057126715152 53.8151044136459 
! Gamma         73.3579890557644 2370.07112017605 75.5313874698542 2377.17038060897 
! Port Impedance         50               0                50               0                
50                             0.0983440715511409 48.8603311152747 0.87412921138504 150.10193807688  0.874129211385041 150.10193807688  0.0972127165623866 51.7247254388403 
! Gamma         74.6737935129517 2418.30210427083 76.8764967984143 2425.52132516723 
! Port Impedance         50               0                50               0                
51                             0.110200480759544 46.6860646451187 0.871065466910725 145.891908429005 0.871065466910725 145.891908429005 0.109211914360812 49.1722098334848 
! Gamma         75.9872782778931 2466.53654212069 78.2189696074434 2473.87549243257 
! Port Impedance         50               0                50               0                
52                             0.121495857121193 44.1388134313499 0.867930045846402 141.6923176591   0.867930045846402 141.6923176591   0.120614311824176 46.3161112555463 
! Gamma         77.2985866723403 2514.77461544984 79.5589628175935 2522.2330751975  
! Port Impedance         50               0                50               0                
53                             0.132149020685414 41.3346054597863 0.864747859189856 137.503781072328 0.864747859189856 137.503781072328 0.131348108166386 43.2531916546446 
! Gamma         78.6078540396682 2563.01649765202 80.8966247266585 2570.59425686175 
! Port Impedance         50               0                50               0                
54                             0.142094223474804 38.3490018845817 0.861544388073327 133.326672079026 0.861544388073327 133.326672079026 0.14135360972431 40.0457425573266 
! Gamma         79.9152080910335 2611.26235474267 82.2320953626046 2618.95921250471 
! Port Impedance         50               0                50               0                
55                             0.151277211847667 35.2332472156899 0.858345109798712 129.161119501864 0.858345109798712 129.161119501864 0.150580597772832 36.7356304741446 
